! AWR Design Environment (7670) Wed Feb 10 15:06:39 2016
! Document = 'bsp14'
! nPorts: 1, nXvals: 550

# HZ S RI R 50
!Freq ReS11 ImS11 
1000000 -0.93477364 0.12345604 
2000000 -0.91151277 0.24395121 
3000000 -0.87395675 0.35875607 
4000000 -0.82377849 0.46556707 
5000000 -0.76306033 0.56263681 
6000000 -0.69409618 0.64882884 
7000000 -0.61920427 0.72360148 
8000000 -0.5405737 0.78693752 
9000000 -0.46015654 0.83924123 
10000000 -0.37960649 0.88122395 
11000000 -0.30025791 0.91379448 
12000000 -0.22313522 0.93796456 
13000000 -0.14898182 0.95477423 
14000000 -0.078299511 0.96523755 
15000000 -0.011391248 0.97030643 
16000000 0.05159756 0.97084954 
17000000 0.11064182 0.96764234 
18000000 0.165805 0.96136527 
19000000 0.21721294 0.95260713 
20000000 0.26503318 0.94187166 
21000000 0.30945878 0.92958581 
22000000 0.3506963 0.9161085 
23000000 0.38895686 0.90173935 
24000000 0.42444984 0.88672693 
25000000 0.45737854 0.87127618 
26000000 0.48793729 0.85555511 
27000000 0.51630973 0.83970063 
28000000 0.54266791 0.82382356 
29000000 0.56717192 0.80801297 
30000000 0.58997 0.79233984 
31000000 0.61119885 0.77686016 
32000000 0.63098418 0.76161751 
33000000 0.64944132 0.74664524 
34000000 0.66667592 0.73196832 
35000000 0.68278465 0.71760481 
36000000 0.69785588 0.70356717 
37000000 0.71197039 0.68986327 
38000000 0.72520197 0.67649727 
39000000 0.73761807 0.66347033 
40000000 0.74928031 0.65078124 
41000000 0.76024505 0.63842686 
42000000 0.77056384 0.62640256 
43000000 0.78028384 0.61470255 
44000000 0.78944827 0.60332012 
45000000 0.79809673 0.59224794 
46000000 0.80626553 0.58147817 
47000000 0.81398801 0.57100264 
48000000 0.8212948 0.56081298 
49000000 0.82821406 0.55090072 
50000000 0.83477171 0.54125734 
51000000 0.84099162 0.53187438 
52000000 0.8468958 0.52274346 
53000000 0.85250457 0.51385632 
54000000 0.85783667 0.50520489 
55000000 0.86290946 0.49678123 
56000000 0.86773899 0.48857766 
57000000 0.87234011 0.48058668 
58000000 0.87672661 0.47280101 
59000000 0.88091126 0.46521361 
60000000 0.88490593 0.45781767 
61000000 0.88872166 0.45060662 
62000000 0.89236872 0.4435741 
63000000 0.89585664 0.43671397 
64000000 0.89919435 0.43002035 
65000000 0.90239013 0.42348755 
66000000 0.90545174 0.41711009 
67000000 0.90838641 0.4108827 
68000000 0.91120092 0.40480033 
69000000 0.91390157 0.39885811 
70000000 0.91649431 0.39305134 
71000000 0.91898469 0.38737553 
72000000 0.9213779 0.38182635 
73000000 0.92367883 0.37639964 
74000000 0.92589207 0.37109141 
75000000 0.92802192 0.3658978 
76000000 0.93007243 0.36081512 
77000000 0.93204742 0.35583983 
78000000 0.93395047 0.3509685 
79000000 0.93578496 0.34619786 
80000000 0.93755408 0.34152475 
81000000 0.93926084 0.33694613 
82000000 0.94090807 0.33245909 
83000000 0.94249844 0.3280608 
84000000 0.9440345 0.32374857 
85000000 0.94551863 0.3195198 
86000000 0.94695309 0.31537198 
87000000 0.94834005 0.3113027 
88000000 0.94968151 0.30730964 
89000000 0.95097941 0.30339056 
90000000 0.95223557 0.29954331 
91000000 0.95345172 0.2957658 
92000000 0.9546295 0.29205605 
93000000 0.95577048 0.28841212 
94000000 0.95687612 0.28483214 
95000000 0.95794785 0.28131433 
96000000 0.958987 0.27785696 
97000000 0.95999485 0.27445835 
98000000 0.9609726 0.27111689 
99000000 0.96192141 0.26783103 
1e+008 0.96284239 0.26459927 
1.01e+008 0.96373657 0.26142015 
1.02e+008 0.96460497 0.25829227 
1.03e+008 0.96544853 0.25521428 
1.04e+008 0.96626816 0.25218487 
1.05e+008 0.96706474 0.24920277 
1.06e+008 0.96783909 0.24626676 
1.07e+008 0.96859201 0.24337567 
1.08e+008 0.96932425 0.24052833 
1.09e+008 0.97003654 0.23772365 
1.1e+008 0.97072958 0.23496055 
1.11e+008 0.97140402 0.23223799 
1.12e+008 0.9720605 0.22955498 
1.13e+008 0.97269963 0.22691054 
1.14e+008 0.973322 0.22430373 
1.15e+008 0.97392815 0.22173362 
1.16e+008 0.97451863 0.21919935 
1.17e+008 0.97509395 0.21670005 
1.18e+008 0.97565461 0.21423489 
1.19e+008 0.97620106 0.21180307 
1.2e+008 0.97673378 0.2094038 
1.21e+008 0.97725319 0.20703632 
1.22e+008 0.97775971 0.2046999 
1.23e+008 0.97825375 0.20239383 
1.24e+008 0.97873568 0.20011741 
1.25e+008 0.97920589 0.19786998 
1.26e+008 0.97966473 0.19565086 
1.27e+008 0.98011254 0.19345945 
1.28e+008 0.98054965 0.1912951 
1.29e+008 0.98097639 0.18915724 
1.3e+008 0.98139305 0.18704527 
1.31e+008 0.98179994 0.18495863 
1.32e+008 0.98219733 0.18289677 
1.33e+008 0.9825855 0.18085916 
1.34e+008 0.98296472 0.17884527 
1.35e+008 0.98333524 0.1768546 
1.36e+008 0.9836973 0.17488667 
1.37e+008 0.98405114 0.17294098 
1.38e+008 0.98439699 0.17101707 
1.39e+008 0.98473508 0.1691145 
1.4e+008 0.9850656 0.16723282 
1.41e+008 0.98538877 0.1653716 
1.42e+008 0.98570479 0.16353042 
1.43e+008 0.98601385 0.16170887 
1.44e+008 0.98631613 0.15990656 
1.45e+008 0.98661181 0.15812311 
1.46e+008 0.98690106 0.15635812 
1.47e+008 0.98718406 0.15461124 
1.48e+008 0.98746096 0.15288211 
1.49e+008 0.98773192 0.15117038 
1.5e+008 0.98799709 0.14947571 
1.51e+008 0.98825661 0.14779776 
1.52e+008 0.98851064 0.14613622 
1.53e+008 0.9887593 0.14449076 
1.54e+008 0.98900272 0.14286109 
1.55e+008 0.98924105 0.14124689 
1.56e+008 0.98947439 0.13964787 
1.57e+008 0.98970288 0.13806375 
1.58e+008 0.98992662 0.13649425 
1.59e+008 0.99014574 0.1349391 
1.6e+008 0.99036034 0.13339802 
1.61e+008 0.99057052 0.13187076 
1.62e+008 0.9907764 0.13035706 
1.63e+008 0.99097807 0.12885668 
1.64e+008 0.99117562 0.12736937 
1.65e+008 0.99136916 0.12589489 
1.66e+008 0.99155877 0.12443301 
1.67e+008 0.99174455 0.12298351 
1.68e+008 0.99192657 0.12154617 
1.69e+008 0.99210492 0.12012076 
1.7e+008 0.99227969 0.11870707 
1.71e+008 0.99245095 0.1173049 
1.72e+008 0.99261877 0.11591405 
1.73e+008 0.99278324 0.11453431 
1.74e+008 0.99294442 0.1131655 
1.75e+008 0.99310239 0.11180741 
1.76e+008 0.99325721 0.11045987 
1.77e+008 0.99340895 0.1091227 
1.78e+008 0.99355768 0.10779571 
1.79e+008 0.99370345 0.10647874 
1.8e+008 0.99384633 0.1051716 
1.81e+008 0.99398637 0.10387414 
1.82e+008 0.99412364 0.10258619 
1.83e+008 0.99425819 0.10130759 
1.84e+008 0.99439007 0.10003818 
1.85e+008 0.99451934 0.098777815 
1.86e+008 0.99464605 0.097526333 
1.87e+008 0.99477025 0.096283592 
1.88e+008 0.99489199 0.095049445 
1.89e+008 0.99501132 0.093823752 
1.9e+008 0.99512828 0.092606373 
1.91e+008 0.99524291 0.091397172 
1.92e+008 0.99535527 0.090196015 
1.93e+008 0.9954654 0.08900277 
1.94e+008 0.99557333 0.087817309 
1.95e+008 0.9956791 0.086639506 
1.96e+008 0.99578277 0.085469237 
1.97e+008 0.99588436 0.084306381 
1.98e+008 0.99598391 0.083150817 
1.99e+008 0.99608146 0.082002431 
2e+008 0.99617705 0.080861105 
2.01e+008 0.99627071 0.079726729 
2.02e+008 0.99636247 0.078599191 
2.03e+008 0.99645237 0.077478383 
2.04e+008 0.99654044 0.076364198 
2.05e+008 0.99662671 0.075256532 
2.06e+008 0.99671121 0.074155281 
2.07e+008 0.99679397 0.073060345 
2.08e+008 0.99687503 0.071971625 
2.09e+008 0.99695441 0.070889023 
2.1e+008 0.99703213 0.069812444 
2.11e+008 0.99710823 0.068741793 
2.12e+008 0.99718273 0.067676979 
2.13e+008 0.99725565 0.06661791 
2.14e+008 0.99732703 0.065564497 
2.15e+008 0.99739689 0.064516652 
2.16e+008 0.99746525 0.063474289 
2.17e+008 0.99753213 0.062437324 
2.18e+008 0.99759756 0.061405673 
2.19e+008 0.99766156 0.060379254 
2.2e+008 0.99772415 0.059357986 
2.21e+008 0.99778535 0.05834179 
2.22e+008 0.99784519 0.057330588 
2.23e+008 0.99790368 0.056324303 
2.24e+008 0.99796085 0.05532286 
2.25e+008 0.99801671 0.054326184 
2.26e+008 0.99807128 0.053334202 
2.27e+008 0.99812458 0.052346843 
2.28e+008 0.99817663 0.051364035 
2.29e+008 0.99822745 0.050385709 
2.3e+008 0.99827706 0.049411796 
2.31e+008 0.99832546 0.048442228 
2.32e+008 0.99837268 0.047476939 
2.33e+008 0.99841874 0.046515863 
2.34e+008 0.99846364 0.045558936 
2.35e+008 0.99850741 0.044606094 
2.36e+008 0.99855006 0.043657274 
2.37e+008 0.9985916 0.042712415 
2.38e+008 0.99863205 0.041771456 
2.39e+008 0.99867142 0.040834336 
2.4e+008 0.99870973 0.039900998 
2.41e+008 0.998747 0.038971381 
2.42e+008 0.99878322 0.038045431 
2.43e+008 0.99881842 0.037123088 
2.44e+008 0.9988526 0.036204298 
2.45e+008 0.99888579 0.035289007 
2.46e+008 0.99891799 0.034377158 
2.47e+008 0.99894921 0.0334687 
2.48e+008 0.99897947 0.032563578 
2.49e+008 0.99900878 0.031661742 
2.5e+008 0.99903714 0.03076314 
2.51e+008 0.99906457 0.029867721 
2.52e+008 0.99909108 0.028975434 
2.53e+008 0.99911668 0.028086232 
2.54e+008 0.99914137 0.027200064 
2.55e+008 0.99916518 0.026316883 
2.56e+008 0.9991881 0.025436642 
2.57e+008 0.99921015 0.024559293 
2.58e+008 0.99923133 0.023684791 
2.59e+008 0.99925166 0.022813088 
2.6e+008 0.99927114 0.021944142 
2.61e+008 0.99928979 0.021077906 
2.62e+008 0.9993076 0.020214336 
2.63e+008 0.9993246 0.01935339 
2.64e+008 0.99934078 0.018495024 
2.65e+008 0.99935615 0.017639196 
2.66e+008 0.99937072 0.016785864 
2.67e+008 0.9993845 0.015934985 
2.68e+008 0.9993975 0.01508652 
2.69e+008 0.99940972 0.014240427 
2.7e+008 0.99942117 0.013396666 
2.71e+008 0.99943186 0.012555199 
2.72e+008 0.99944179 0.011715984 
2.73e+008 0.99945096 0.010878984 
2.74e+008 0.9994594 0.010044161 
2.75e+008 0.99946709 0.0092114757 
2.76e+008 0.99947405 0.008380891 
2.77e+008 0.99948028 0.0075523698 
2.78e+008 0.99948579 0.0067258752 
2.79e+008 0.99949059 0.0059013707 
2.8e+008 0.99949467 0.0050788203 
2.81e+008 0.99949805 0.0042581883 
2.82e+008 0.99950072 0.0034394392 
2.83e+008 0.9995027 0.002622538 
2.84e+008 0.99950399 0.00180745 
2.85e+008 0.99950459 0.00099414088 
2.86e+008 0.99950451 0.00018257656 
2.87e+008 0.99950375 -0.00062727674 
2.88e+008 0.99950232 -0.0014354524 
2.89e+008 0.99950022 -0.0022419837 
2.9e+008 0.99949745 -0.0030469033 
2.91e+008 0.99949402 -0.003850244 
2.92e+008 0.99948994 -0.0046520379 
2.93e+008 0.9994852 -0.005452317 
2.94e+008 0.99947981 -0.0062511132 
2.95e+008 0.99947377 -0.007048458 
2.96e+008 0.99946709 -0.0078443825 
2.97e+008 0.99945976 -0.0086389179 
2.98e+008 0.9994518 -0.0094320948 
2.99e+008 0.99944321 -0.010223944 
3e+008 0.99943398 -0.011014495 
3.01e+008 0.99942413 -0.011803779 
3.02e+008 0.99941365 -0.012591825 
3.03e+008 0.99940254 -0.013378664 
3.04e+008 0.99939082 -0.014164323 
3.05e+008 0.99937847 -0.014948834 
3.06e+008 0.99936551 -0.015732224 
3.07e+008 0.99935194 -0.016514523 
3.08e+008 0.99933775 -0.017295759 
3.09e+008 0.99932296 -0.018075961 
3.1e+008 0.99930755 -0.018855157 
3.11e+008 0.99929154 -0.019633376 
3.12e+008 0.99927493 -0.020410645 
3.13e+008 0.99925771 -0.021186992 
3.14e+008 0.99923989 -0.021962445 
3.15e+008 0.99922148 -0.022737032 
3.16e+008 0.99920246 -0.02351078 
3.17e+008 0.99918285 -0.024283716 
3.18e+008 0.99916264 -0.025055867 
3.19e+008 0.99914184 -0.02582726 
3.2e+008 0.99912044 -0.026597923 
3.21e+008 0.99909846 -0.027367882 
3.22e+008 0.99907588 -0.028137164 
3.23e+008 0.99905271 -0.028905795 
3.24e+008 0.99902894 -0.029673801 
3.25e+008 0.9990046 -0.03044121 
3.26e+008 0.99897966 -0.031208047 
3.27e+008 0.99895413 -0.031974338 
3.28e+008 0.99892801 -0.03274011 
3.29e+008 0.99890131 -0.033505388 
3.3e+008 0.99887402 -0.034270199 
3.31e+008 0.99884615 -0.035034568 
3.32e+008 0.99881768 -0.035798522 
3.33e+008 0.99878863 -0.036562084 
3.34e+008 0.99875899 -0.037325283 
3.35e+008 0.99872876 -0.038088142 
3.36e+008 0.99869795 -0.038850688 
3.37e+008 0.99866655 -0.039612945 
3.38e+008 0.99863456 -0.040374941 
3.39e+008 0.99860198 -0.041136699 
3.4e+008 0.99856881 -0.041898245 
3.41e+008 0.99853505 -0.042659604 
3.42e+008 0.9985007 -0.043420802 
3.43e+008 0.99846576 -0.044181865 
3.44e+008 0.99843022 -0.044942817 
3.45e+008 0.9983941 -0.045703683 
3.46e+008 0.99835738 -0.046464489 
3.47e+008 0.99832006 -0.04722526 
3.48e+008 0.99828214 -0.047986021 
3.49e+008 0.99824363 -0.048746797 
3.5e+008 0.99820452 -0.049507614 
3.51e+008 0.99816481 -0.050268497 
3.52e+008 0.99812449 -0.051029471 
3.53e+008 0.99808357 -0.051790561 
3.54e+008 0.99804205 -0.052551793 
3.55e+008 0.99799992 -0.053313192 
3.56e+008 0.99795718 -0.054074783 
3.57e+008 0.99791382 -0.054836591 
3.58e+008 0.99786986 -0.055598642 
3.59e+008 0.99782528 -0.056360962 
3.6e+008 0.99778008 -0.057123575 
3.61e+008 0.99773426 -0.057886508 
3.62e+008 0.99768782 -0.058649786 
3.63e+008 0.99764075 -0.059413434 
3.64e+008 0.99759306 -0.060177479 
3.65e+008 0.99754474 -0.060941945 
3.66e+008 0.99749578 -0.06170686 
3.67e+008 0.9974462 -0.062472248 
3.68e+008 0.99739597 -0.063238136 
3.69e+008 0.9973451 -0.06400455 
3.7e+008 0.99729359 -0.064771515 
3.71e+008 0.99724143 -0.065539059 
3.72e+008 0.99718862 -0.066307208 
3.73e+008 0.99713515 -0.067075987 
3.74e+008 0.99708103 -0.067845424 
3.75e+008 0.99702625 -0.068615545 
3.76e+008 0.99697081 -0.069386377 
3.77e+008 0.99691469 -0.070157947 
3.78e+008 0.99685791 -0.070930281 
3.79e+008 0.99680045 -0.071703408 
3.8e+008 0.99674231 -0.072477354 
3.81e+008 0.99668348 -0.073252146 
3.82e+008 0.99662397 -0.074027812 
3.83e+008 0.99656377 -0.074804381 
3.84e+008 0.99650286 -0.075581879 
3.85e+008 0.99644126 -0.076360335 
3.86e+008 0.99637895 -0.077139776 
3.87e+008 0.99631593 -0.077920232 
3.88e+008 0.9962522 -0.078701731 
3.89e+008 0.99618774 -0.079484301 
3.9e+008 0.99612256 -0.080267971 
3.91e+008 0.99605665 -0.081052771 
3.92e+008 0.99599 -0.081838729 
3.93e+008 0.99592262 -0.082625875 
3.94e+008 0.99585448 -0.083414238 
3.95e+008 0.99578559 -0.084203849 
3.96e+008 0.99571594 -0.084994738 
3.97e+008 0.99564553 -0.085786934 
3.98e+008 0.99557435 -0.086580468 
3.99e+008 0.99550239 -0.087375372 
4e+008 0.99542965 -0.088171676 
4.01e+008 0.99535612 -0.088969411 
4.02e+008 0.99528179 -0.089768608 
4.03e+008 0.99520667 -0.090569301 
4.04e+008 0.99513073 -0.091371519 
4.05e+008 0.99505397 -0.092175297 
4.06e+008 0.99497639 -0.092980665 
4.07e+008 0.99489798 -0.093787658 
4.08e+008 0.99481874 -0.094596308 
4.09e+008 0.99473864 -0.095406649 
4.1e+008 0.99465769 -0.096218714 
4.11e+008 0.99457589 -0.097032538 
4.12e+008 0.99449321 -0.097848155 
4.13e+008 0.99440965 -0.098665599 
4.14e+008 0.99432521 -0.099484905 
4.15e+008 0.99423987 -0.10030611 
4.16e+008 0.99415363 -0.10112925 
4.17e+008 0.99406648 -0.10195435 
4.18e+008 0.9939784 -0.10278147 
4.19e+008 0.9938894 -0.10361062 
4.2e+008 0.99379945 -0.10444186 
4.21e+008 0.99370856 -0.10527521 
4.22e+008 0.9936167 -0.10611072 
4.23e+008 0.99352387 -0.10694843 
4.24e+008 0.99343007 -0.10778836 
4.25e+008 0.99333527 -0.10863057 
4.26e+008 0.99323948 -0.10947509 
4.27e+008 0.99314267 -0.11032196 
4.28e+008 0.99304484 -0.11117123 
4.29e+008 0.99294597 -0.11202292 
4.3e+008 0.99284606 -0.1128771 
4.31e+008 0.99274509 -0.11373378 
4.32e+008 0.99264305 -0.11459303 
4.33e+008 0.99253993 -0.11545488 
4.34e+008 0.99243572 -0.11631938 
4.35e+008 0.9923304 -0.11718656 
4.36e+008 0.99222396 -0.11805648 
4.37e+008 0.99211638 -0.11892918 
4.38e+008 0.99200766 -0.11980471 
4.39e+008 0.99189778 -0.1206831 
4.4e+008 0.99178673 -0.12156442 
4.41e+008 0.99167448 -0.1224487 
4.42e+008 0.99156103 -0.12333599 
4.43e+008 0.99144637 -0.12422634 
4.44e+008 0.99133047 -0.12511981 
4.45e+008 0.99121332 -0.12601644 
4.46e+008 0.99109491 -0.12691628 
4.47e+008 0.99097522 -0.12781939 
4.48e+008 0.99085422 -0.12872581 
4.49e+008 0.99073192 -0.1296356 
4.5e+008 0.99060828 -0.13054881 
4.51e+008 0.9904833 -0.1314655 
4.52e+008 0.99035694 -0.13238572 
4.53e+008 0.99022921 -0.13330953 
4.54e+008 0.99010006 -0.13423698 
4.55e+008 0.9899695 -0.13516813 
4.56e+008 0.98983749 -0.13610304 
4.57e+008 0.98970403 -0.13704177 
4.58e+008 0.98956908 -0.13798437 
4.59e+008 0.98943262 -0.13893092 
4.6e+008 0.98929465 -0.13988147 
4.61e+008 0.98915512 -0.14083608 
4.62e+008 0.98901403 -0.14179481 
4.63e+008 0.98887135 -0.14275774 
4.64e+008 0.98872706 -0.14372492 
4.65e+008 0.98858113 -0.14469643 
4.66e+008 0.98843354 -0.14567233 
4.67e+008 0.98828427 -0.14665269 
4.68e+008 0.98813328 -0.14763758 
4.69e+008 0.98798057 -0.14862707 
4.7e+008 0.98782609 -0.14962123 
4.71e+008 0.98766982 -0.15062014 
4.72e+008 0.98751173 -0.15162386 
4.73e+008 0.98735181 -0.15263249 
4.74e+008 0.98719001 -0.15364608 
4.75e+008 0.98702631 -0.15466472 
4.76e+008 0.98686068 -0.1556885 
4.77e+008 0.98669309 -0.15671748 
4.78e+008 0.98652351 -0.15775175 
4.79e+008 0.98635191 -0.1587914 
4.8e+008 0.98617825 -0.15983651 
4.81e+008 0.9860025 -0.16088717 
4.82e+008 0.98582462 -0.16194346 
4.83e+008 0.98564459 -0.16300547 
4.84e+008 0.98546237 -0.1640733 
4.85e+008 0.98527791 -0.16514703 
4.86e+008 0.98509119 -0.16622676 
4.87e+008 0.98490216 -0.16731259 
4.88e+008 0.98471079 -0.16840461 
4.89e+008 0.98451704 -0.16950293 
4.9e+008 0.98432086 -0.17060764 
4.91e+008 0.98412221 -0.17171884 
4.92e+008 0.98392105 -0.17283665 
4.93e+008 0.98371734 -0.17396116 
4.94e+008 0.98351103 -0.17509249 
4.95e+008 0.98330207 -0.17623074 
4.96e+008 0.98309043 -0.17737604 
4.97e+008 0.98287604 -0.17852849 
4.98e+008 0.98265886 -0.17968821 
4.99e+008 0.98243885 -0.18085532 
5e+008 0.98221594 -0.18202994 
5.01e+008 0.98199009 -0.1832122 
5.02e+008 0.98176124 -0.18440222 
5.03e+008 0.98152933 -0.18560012 
5.04e+008 0.98129431 -0.18680606 
5.05e+008 0.98105612 -0.18802014 
5.06e+008 0.98081469 -0.18924252 
5.07e+008 0.98056997 -0.19047333 
5.08e+008 0.9803219 -0.19171271 
5.09e+008 0.9800704 -0.19296081 
5.1e+008 0.97981541 -0.19421777 
5.11e+008 0.97955687 -0.19548375 
5.12e+008 0.9792947 -0.19675891 
5.13e+008 0.97902882 -0.19804339 
5.14e+008 0.97875918 -0.19933735 
5.15e+008 0.97848568 -0.20064097 
5.16e+008 0.97820826 -0.20195441 
5.17e+008 0.97792682 -0.20327784 
5.18e+008 0.9776413 -0.20461143 
5.19e+008 0.9773516 -0.20595536 
5.2e+008 0.97705764 -0.20730982 
5.21e+008 0.97675932 -0.20867499 
5.22e+008 0.97645656 -0.21005105 
5.23e+008 0.97614927 -0.21143821 
5.24e+008 0.97583733 -0.21283667 
5.25e+008 0.97552067 -0.21424662 
5.26e+008 0.97519916 -0.21566827 
5.27e+008 0.97487271 -0.21710184 
5.28e+008 0.97454121 -0.21854753 
5.29e+008 0.97420454 -0.22000559 
5.3e+008 0.9738626 -0.22147622 
5.31e+008 0.97351526 -0.22295966 
5.32e+008 0.97316239 -0.22445616 
5.33e+008 0.97280388 -0.22596594 
5.34e+008 0.9724396 -0.22748927 
5.35e+008 0.97206941 -0.22902639 
5.36e+008 0.97169317 -0.23057757 
5.37e+008 0.97131075 -0.23214308 
5.38e+008 0.97092199 -0.23372318 
5.39e+008 0.97052675 -0.23531815 
5.4e+008 0.97012488 -0.23692829 
5.41e+008 0.9697162 -0.23855388 
5.42e+008 0.96930057 -0.24019523 
5.43e+008 0.9688778 -0.24185264 
5.44e+008 0.96844772 -0.24352644 
5.45e+008 0.96801015 -0.24521694 
5.46e+008 0.96756491 -0.24692448 
5.47e+008 0.9671118 -0.24864939 
5.48e+008 0.96665062 -0.25039203 
5.49e+008 0.96618117 -0.25215276 
5.5e+008 0.96570323 -0.25393193 
