! AWR Design Environment (7670) Sun Feb 07 14:47:35 2016
! Document = 'messungen'
! nPorts: 1, nXvals: 101

# HZ Z MA R 50
!Freq MagZ11 AngZ11 
100000 0.44051535 1.3645719 
1100000 0.45541207 14.318112 
2100000 0.49105333 25.886947 
3100000 0.54354458 35.564709 
4100000 0.60867628 43.365285 
5100000 0.68289024 49.57575 
6100000 0.76365534 54.53378 
7100000 0.84920088 58.528869 
8100000 0.9383391 61.787432 
9100000 1.0302692 64.481761 
10100000 1.1244556 66.737855 
11100000 1.2204598 68.650059 
12100000 1.3180611 70.286491 
13100000 1.4171075 71.704771 
14100000 1.5173977 72.944047 
15100000 1.6187721 74.031635 
16100000 1.7213741 74.99752 
17100000 1.8249739 75.858349 
18100000 1.929672 76.632779 
19100000 2.0355549 77.331758 
20100000 2.142306 77.962911 
21100000 2.250305 78.541748 
22100000 2.3594965 79.070259 
23100000 2.4696965 79.554341 
24100000 2.5812003 79.99993 
25100000 2.6939731 80.414798 
26100000 2.8078824 80.79367 
27100000 2.9230606 81.150463 
28100000 3.0394963 81.482453 
29100000 3.1573813 81.796634 
30100000 3.2767266 82.091351 
31100000 3.3978885 82.368769 
32100000 3.5205026 82.63118 
33100000 3.6448042 82.876444 
34100000 3.7707781 83.108973 
35100000 3.8986342 83.332166 
36100000 4.0285266 83.542045 
37100000 4.1604762 83.743813 
38100000 4.2942735 83.932742 
39100000 4.4301647 84.112285 
40100000 4.5684466 84.286002 
41100000 4.7089666 84.451633 
42100000 4.8521973 84.607843 
43100000 4.997646 84.758781 
44100000 5.1460818 84.903743 
45100000 5.2970205 85.04072 
46100000 5.4509601 85.173269 
47100000 5.6079339 85.300995 
48100000 5.7682172 85.42253 
49100000 5.9316227 85.540427 
50100000 6.0988605 85.655491 
51100000 6.2694137 85.764667 
52100000 6.4441476 85.869675 
53100000 6.6232096 85.971893 
54100000 6.8058837 86.069141 
55100000 6.9934493 86.162565 
56100000 7.1854121 86.254247 
57100000 7.3825042 86.337782 
58100000 7.5840391 86.423689 
59100000 7.7913815 86.503892 
60100000 8.0041447 86.579761 
61100000 8.2231892 86.6561 
62100000 8.4484592 86.732551 
63100000 8.6807188 86.803625 
64100000 8.918839 86.870198 
65100000 9.1644698 86.934485 
66100000 9.4170482 86.999935 
67100000 9.6782998 87.061962 
68100000 9.9473588 87.121101 
69100000 10.225685 87.169075 
70100000 10.512934 87.197855 
71100000 10.810283 87.255208 
72100000 11.119383 87.312501 
73100000 11.440472 87.363616 
74100000 11.772933 87.409169 
75100000 12.118276 87.453451 
76100000 12.477168 87.498914 
77100000 12.850888 87.538204 
78100000 13.239414 87.570479 
79100000 13.643283 87.600961 
80100000 14.06459 87.632223 
81100000 14.504055 87.661415 
82100000 14.962371 87.68864 
83100000 15.441381 87.718528 
84100000 15.944449 87.755964 
85100000 16.471031 87.798601 
86100000 17.026134 87.844815 
87100000 17.613194 87.889514 
88100000 18.235186 87.931719 
89100000 18.894195 87.974744 
90100000 19.587493 88.008107 
91100000 20.325778 88.03831 
92100000 21.111297 88.065494 
93100000 21.946718 88.08995 
94100000 22.833995 88.114467 
95100000 23.785492 88.138694 
96100000 24.808727 88.162713 
97100000 25.910547 88.185403 
98100000 27.094881 88.203974 
99100000 28.379801 88.222117 
1e+008 29.635092 88.23897 
