! AWR Design Environment (7670) Wed Feb 10 14:44:16 2016
! Document = 'bsp3'
! nPorts: 1, nXvals: 401

# HZ Z MA R 100
!Freq MagZ11 AngZ11 
10000 1061.0801 -89.460016 
10232.93 1036.9291 -89.447439 
10471.285 1013.3279 -89.434569 
10715.193 990.26406 -89.421399 
10964.782 967.72522 -89.407923 
11220.185 945.69949 -89.394133 
11481.536 924.17517 -89.380021 
11748.976 903.14087 -89.365581 
12022.644 882.58542 -89.350805 
12302.688 862.49794 -89.335685 
12589.254 842.86776 -89.320212 
12882.496 823.68448 -89.304379 
13182.567 804.93792 -89.288178 
13489.629 786.61816 -89.271599 
13803.843 768.71547 -89.254635 
14125.375 751.22037 -89.237275 
14454.398 734.12357 -89.219511 
14791.084 717.41601 -89.201333 
15135.612 701.08884 -89.182732 
15488.166 685.1334 -89.163698 
15848.932 669.54122 -89.144221 
16218.101 654.30404 -89.124291 
16595.869 639.41378 -89.103896 
16982.437 624.86255 -89.083027 
17378.008 610.64262 -89.061671 
17782.794 596.74647 -89.039819 
18197.009 583.16672 -89.017458 
18620.871 569.89618 -88.994576 
19054.607 556.9278 -88.971162 
19498.446 544.25471 -88.947202 
19952.623 531.87019 -88.922685 
20417.379 519.76767 -88.897598 
20892.961 507.94075 -88.871926 
21379.621 496.38314 -88.845657 
21877.616 485.08872 -88.818776 
22387.211 474.0515 -88.79127 
22908.677 463.26562 -88.763124 
23442.288 452.72538 -88.734322 
23988.329 442.42518 -88.704851 
24547.089 432.35956 -88.674694 
25118.864 422.52318 -88.643835 
25703.958 412.91083 -88.612258 
26302.68 403.51741 -88.579946 
26915.348 394.33794 -88.546883 
27542.287 385.36755 -88.51305 
28183.829 376.60149 -88.478431 
28840.315 368.03511 -88.443006 
29512.092 359.66386 -88.406758 
30199.517 351.48332 -88.369666 
30902.954 343.48913 -88.331712 
31622.777 335.67707 -88.292875 
32359.366 328.04298 -88.253136 
33113.112 320.58283 -88.212472 
33884.416 313.29266 -88.170863 
34673.685 306.1686 -88.128287 
35481.339 299.20687 -88.084721 
36307.805 292.40379 -88.040143 
37153.523 285.75574 -87.994529 
38018.94 279.2592 -87.947855 
38904.514 272.91073 -87.900097 
39810.717 266.70697 -87.851229 
40738.028 260.64461 -87.801227 
41686.938 254.72045 -87.750063 
42657.952 248.93134 -87.697711 
43651.583 243.27422 -87.644143 
44668.359 237.74609 -87.589332 
45708.819 232.34402 -87.533249 
46773.514 227.06513 -87.475864 
47863.009 221.90664 -87.417148 
48977.882 216.8658 -87.35707 
50118.723 211.93995 -87.295599 
51286.138 207.12648 -87.232702 
52480.746 202.42282 -87.168347 
53703.18 197.82649 -87.102501 
54954.087 193.33505 -87.035128 
56234.133 188.94612 -86.966195 
57543.994 184.65737 -86.895666 
58884.366 180.46652 -86.823503 
60255.959 176.37136 -86.749669 
61659.5 172.36971 -86.674128 
63095.734 168.45946 -86.596838 
64565.423 164.63852 -86.517761 
66069.345 160.90488 -86.436856 
67608.298 157.25655 -86.354081 
69183.097 153.69159 -86.269394 
70794.578 150.20813 -86.182751 
72443.596 146.8043 -86.094108 
74131.024 143.47832 -86.003419 
75857.758 140.2284 -85.910639 
77624.712 137.05283 -85.81572 
79432.823 133.94993 -85.718614 
81283.052 130.91805 -85.619272 
83176.377 127.95558 -85.517642 
85113.804 125.06095 -85.413675 
87096.359 122.23263 -85.307318 
89125.094 119.46911 -85.198516 
91201.084 116.76893 -85.087217 
93325.43 114.13067 -84.973363 
95499.259 111.55291 -84.856898 
97723.722 109.0343 -84.737765 
100000 106.57349 -84.615904 
102329.3 104.16919 -84.491255 
104712.85 101.82011 -84.363757 
107151.93 99.525017 -84.233347 
109647.82 97.282686 -84.099961 
112201.85 95.09193 -83.963535 
114815.36 92.951587 -83.824002 
117489.76 90.860521 -83.681295 
120226.44 88.817624 -83.535345 
123026.88 86.821811 -83.386083 
125892.54 84.872025 -83.233438 
128824.96 82.967229 -83.077337 
131825.67 81.106415 -82.917706 
134896.29 79.288595 -82.754472 
138038.43 77.512804 -82.587558 
141253.75 75.7781 -82.416886 
144543.98 74.083562 -82.24238 
147910.84 72.428291 -82.063958 
151356.12 70.811409 -81.881541 
154881.66 69.232057 -81.695046 
158489.32 67.689397 -81.50439 
162181.01 66.182609 -81.30949 
165958.69 64.710894 -81.110259 
169824.37 63.27347 -80.906612 
173780.08 61.869574 -80.698461 
177827.94 60.498459 -80.485717 
181970.09 59.159397 -80.268292 
186208.71 57.851677 -80.046095 
190546.07 56.574603 -79.819035 
194984.46 55.327496 -79.58702 
199526.23 54.109694 -79.349958 
204173.79 52.920547 -79.107756 
208929.61 51.759424 -78.860319 
213796.21 50.625707 -78.607553 
218776.16 49.518791 -78.349365 
223872.11 48.438086 -78.085658 
229086.77 47.383018 -77.816338 
234422.88 46.353023 -77.54131 
239883.29 45.347551 -77.260478 
245470.89 44.366067 -76.973747 
251188.64 43.408045 -76.681024 
257039.58 42.472974 -76.382213 
263026.8 41.560353 -76.077222 
269153.48 40.669695 -75.765958 
275422.87 39.800521 -75.44833 
281838.29 38.952366 -75.124247 
288403.15 38.124774 -74.79362 
295120.92 37.317301 -74.456362 
301995.17 36.529511 -74.112388 
309029.54 35.760982 -73.761615 
316227.77 35.011297 -73.403962 
323593.66 34.280052 -73.039351 
331131.12 33.566852 -72.667707 
338844.16 32.871308 -72.288957 
346736.85 32.193044 -71.903033 
354813.39 31.531691 -71.509872 
363078.05 30.886886 -71.109412 
371535.23 30.258279 -70.701598 
380189.4 29.645523 -70.286379 
389045.14 29.048282 -69.863709 
398107.17 28.466227 -69.433549 
407380.28 27.899034 -68.995864 
416869.38 27.34639 -68.550626 
426579.52 26.807986 -68.097815 
436515.83 26.283521 -67.637417 
446683.59 25.7727 -67.169425 
457088.19 25.275233 -66.693841 
467735.14 24.79084 -66.210676 
478630.09 24.319243 -65.719948 
489778.82 23.860171 -65.221685 
501187.23 23.41336 -64.715925 
512861.38 22.97855 -64.202713 
524807.46 22.555487 -63.682109 
537031.8 22.14392 -63.154179 
549540.87 21.743606 -62.619002 
562341.33 21.354305 -62.076669 
575439.94 20.975782 -61.52728 
588843.66 20.607806 -60.970949 
602559.59 20.25015 -60.407799 
616595 19.902592 -59.837968 
630957.34 19.564915 -59.261605 
645654.23 19.236903 -58.67887 
660693.45 18.918346 -58.089936 
676082.98 18.609036 -57.49499 
691830.97 18.30877 -56.894229 
707945.78 18.017348 -56.287863 
724435.96 17.734572 -55.676114 
741310.24 17.460248 -55.059215 
758577.58 17.194186 -54.437411 
776247.12 16.936198 -53.810959 
794328.23 16.686097 -53.180125 
812830.52 16.443703 -52.545187 
831763.77 16.208834 -51.906432 
851138.04 15.981314 -51.264156 
870963.59 15.760969 -50.618665 
891250.94 15.547626 -49.970271 
912010.84 15.341116 -49.319295 
933254.3 15.141271 -48.666063 
954992.59 14.947927 -48.01091 
977237.22 14.760921 -47.354173 
1000000 14.580092 -46.696193 
1023293 14.405284 -46.037316 
1047128.5 14.236339 -45.37789 
1071519.3 14.073105 -44.718263 
1096478.2 13.915431 -44.058786 
1122018.5 13.763167 -43.399807 
1148153.6 13.616166 -42.741675 
1174897.6 13.474285 -42.084735 
1202264.4 13.33738 -41.429329 
1230268.8 13.205312 -40.775797 
1258925.4 13.077943 -40.124472 
1288249.6 12.955138 -39.475681 
1318256.7 12.836764 -38.829747 
1348962.9 12.722689 -38.186983 
1380384.3 12.612785 -37.547696 
1412537.5 12.506926 -36.912184 
1445439.8 12.404989 -36.280734 
1479108.4 12.306851 -35.653626 
1513561.2 12.212394 -35.031129 
1548816.6 12.121501 -34.413499 
1584893.2 12.034058 -33.800984 
1621810.1 11.949953 -33.19382 
1659586.9 11.869077 -32.592228 
1698243.7 11.791324 -31.996422 
1737800.8 11.716588 -31.4066 
1778279.4 11.644769 -30.822951 
1819700.9 11.575765 -30.245648 
1862087.1 11.509482 -29.674855 
1905460.7 11.445823 -29.110723 
1949844.6 11.384697 -28.553389 
1995262.3 11.326014 -28.002981 
2041737.9 11.269687 -27.459613 
2089296.1 11.215631 -26.923387 
2137962.1 11.163764 -26.394396 
2187761.6 11.114005 -25.872719 
2238721.1 11.066277 -25.358426 
2290867.7 11.020504 -24.851576 
2344228.8 10.976613 -24.352217 
2398832.9 10.934533 -23.860389 
2454708.9 10.894195 -23.37612 
2511886.4 10.855532 -22.899431 
2570395.8 10.818481 -22.430332 
2630268 10.782979 -21.968827 
2691534.8 10.748965 -21.51491 
2754228.7 10.716381 -21.06857 
2818382.9 10.68517 -20.629785 
2884031.5 10.65528 -20.19853 
2951209.2 10.626656 -19.77477 
3019951.7 10.599248 -19.358468 
3090295.4 10.573007 -18.949577 
3162277.7 10.547886 -18.548049 
3235936.6 10.523841 -18.153827 
3311311.2 10.500825 -17.766853 
3388441.6 10.478799 -17.387061 
3467368.5 10.457721 -17.014386 
3548133.9 10.437551 -16.648754 
3630780.5 10.418253 -16.290091 
3715352.3 10.39979 -15.93832 
3801894 10.382127 -15.59336 
3890451.4 10.365232 -15.255129 
3981071.7 10.349071 -14.923541 
4073802.8 10.333613 -14.598509 
4168693.8 10.31883 -14.279945 
4265795.2 10.304692 -13.967759 
4365158.3 10.291173 -13.66186 
4466835.9 10.278245 -13.362154 
4570881.9 10.265884 -13.068549 
4677351.4 10.254065 -12.780951 
4786300.9 10.242766 -12.499265 
4897788.2 10.231964 -12.223396 
5011872.3 10.221637 -11.95325 
5128613.8 10.211765 -11.688731 
5248074.6 10.202328 -11.429744 
5370318 10.193308 -11.176194 
5495408.7 10.184687 -10.927986 
5623413.3 10.176447 -10.685026 
5754399.4 10.168571 -10.447221 
5888436.6 10.161044 -10.214476 
6025595.9 10.153851 -9.9866997 
6165950 10.146976 -9.7637995 
6309573.4 10.140407 -9.5456844 
6456542.3 10.13413 -9.332264 
6606934.5 10.128131 -9.1234489 
6760829.8 10.122399 -8.9191505 
6918309.7 10.116922 -8.7192813 
7079457.8 10.111689 -8.5237549 
7244359.6 10.106688 -8.3324857 
7413102.4 10.101911 -8.1453894 
7585775.8 10.097346 -7.9623828 
7762471.2 10.092985 -7.7833838 
7943282.3 10.088818 -7.6083114 
8128305.2 10.084838 -7.437086 
8317637.7 10.081035 -7.269629 
8511380.4 10.077402 -7.105863 
8709635.9 10.073931 -6.945712 
8912509.4 10.070615 -6.7891009 
9120108.4 10.067447 -6.6359562 
9332543 10.064422 -6.4862055 
9549925.9 10.061531 -6.3397774 
9772372.2 10.05877 -6.196602 
10000000 10.056132 -6.0566106 
10232930 10.053612 -5.9197356 
10471285 10.051206 -5.7859107 
10715193 10.048907 -5.6550708 
10964782 10.046711 -5.527152 
11220185 10.044613 -5.4020915 
11481536 10.042609 -5.2798279 
11748976 10.040695 -5.1603007 
12022644 10.038867 -5.0434507 
12302688 10.037121 -4.9292199 
12589254 10.035453 -4.8175514 
12882496 10.03386 -4.7083892 
13182567 10.032339 -4.6016788 
13489629 10.030886 -4.4973665 
13803843 10.029498 -4.3953998 
14125375 10.028172 -4.2957271 
14454398 10.026906 -4.1982981 
14791084 10.025696 -4.1030633 
15135612 10.024541 -4.0099744 
15488166 10.023438 -3.918984 
15848932 10.022384 -3.8300456 
16218101 10.021378 -3.7431139 
16595869 10.020417 -3.6581442 
16982437 10.019499 -3.5750932 
17378008 10.018622 -3.493918 
17782794 10.017785 -3.4145771 
18197009 10.016985 -3.3370295 
18620871 10.016221 -3.2612353 
19054607 10.015491 -3.1871554 
19498446 10.014795 -3.1147514 
19952623 10.014129 -3.0439859 
20417379 10.013494 -2.9748222 
20892961 10.012887 -2.9072245 
21379621 10.012307 -2.8411577 
21877616 10.011754 -2.7765874 
22387211 10.011225 -2.7134801 
22908677 10.01072 -2.651803 
23442288 10.010238 -2.5915238 
23988329 10.009777 -2.5326112 
24547089 10.009337 -2.4750345 
25118864 10.008917 -2.4187635 
25703958 10.008516 -2.3637689 
26302680 10.008133 -2.3100219 
26915348 10.007767 -2.2574944 
27542287 10.007418 -2.206159 
28183829 10.007084 -2.1559886 
28840315 10.006765 -2.106957 
29512092 10.006461 -2.0590386 
30199517 10.00617 -2.0122081 
30902954 10.005893 -1.9664411 
31622777 10.005627 -1.9217134 
32359366 10.005374 -1.8780015 
33113112 10.005132 -1.8352826 
33884416 10.004901 -1.793534 
34673685 10.004681 -1.752734 
35481339 10.00447 -1.7128609 
36307805 10.004269 -1.6738939 
37153523 10.004077 -1.6358123 
38018940 10.003894 -1.5985963 
38904514 10.003718 -1.562226 
39810717 10.003551 -1.5266824 
40738028 10.003391 -1.4919468 
41686938 10.003239 -1.4580008 
42657952 10.003093 -1.4248264 
43651583 10.002954 -1.3924064 
44668359 10.002821 -1.3607234 
45708819 10.002694 -1.3297608 
46773514 10.002573 -1.2995022 
47863009 10.002457 -1.2699317 
48977882 10.002346 -1.2410337 
50118723 10.002241 -1.2127929 
51286138 10.00214 -1.1851943 
52480746 10.002044 -1.1582234 
53703180 10.001952 -1.131866 
54954087 10.001864 -1.106108 
56234133 10.00178 -1.080936 
57543994 10.0017 -1.0563365 
58884366 10.001623 -1.0322966 
60255959 10.00155 -1.0088036 
61659500 10.00148 -0.98584501 
63095734 10.001414 -0.96340872 
64565423 10.00135 -0.94148285 
66069345 10.001289 -0.92005581 
67608298 10.001231 -0.89911626 
69183097 10.001176 -0.87865313 
70794578 10.001123 -0.85865557 
72443596 10.001073 -0.83911301 
74131024 10.001024 -0.8200151 
75857758 10.000978 -0.80135174 
77624712 10.000934 -0.78311305 
79432823 10.000892 -0.76528936 
81283052 10.000852 -0.74787125 
83176377 10.000814 -0.73084949 
85113804 10.000777 -0.71421507 
87096359 10.000742 -0.69795918 
89125094 10.000709 -0.68207321 
91201084 10.000677 -0.66654874 
93325430 10.000646 -0.65137756 
95499259 10.000617 -0.63655163 
97723722 10.000589 -0.6220631 
1e+008 10.000563 -0.60790429 
