! AWR Design Environment (7670) Wed Feb 10 14:54:52 2016
! Document = 'bsp5'
! nPorts: 1, nXvals: 1001

# HZ Z RI R 50
!Freq ReZ11 ImZ11 
10 1 -795.77346 
1010 1 -7.7520372 
2010 1 -3.7064941 
3010 1 -2.2655221 
4010 1 -1.4805641 
5010 1 -0.95879752 
6010 1 -0.56884551 
7010 1 -0.25429673 
8010 1 0.013089738 
9010 1 0.24901721 
10010 1 0.46291396 
11010 1 0.66078291 
12010 1 0.84662768 
13010 1 1.0232209 
14010 1 1.1925437 
15010 1 1.3560492 
16010 1 1.5148274 
17010 1 1.6697121 
18010 1 1.8213518 
19010 1 1.9702586 
20010 1 2.1168422 
21010 1 2.2614345 
22010 1 2.4043067 
23010 1 2.5456832 
24010 1 2.6857509 
25010 1 2.8246667 
26010 1 2.9625635 
27010 1 3.0995544 
28010 1 3.2357366 
29010 1 3.3711936 
30010 1 3.505998 
31010 1 3.6402128 
32010 1 3.7738933 
33010 1 3.9070881 
34010 1 4.0398401 
35010 1 4.1721871 
36010 1 4.3041629 
37010 1 4.4357976 
38010 1 4.5671182 
39010 1 4.6981487 
40010 1 4.8289109 
41010 1 4.9594245 
42010 1 5.0897072 
43010 1 5.2197751 
44010 1 5.3496429 
45010 1 5.4793239 
46010 1 5.6088302 
47010 1 5.7381731 
48010 1 5.8673627 
49010 1 5.9964084 
50010 1 6.1253188 
51010 1 6.254102 
52010 1 6.3827652 
53010 1 6.5113152 
54010 1 6.6397584 
55010 1 6.7681005 
56010 1 6.8963469 
57010 1 7.0245028 
58010 1 7.1525727 
59010 1 7.2805611 
60010 1 7.408472 
61010 1 7.5363092 
62010 1 7.6640764 
63010 1 7.7917767 
64010 1 7.9194135 
65010 1 8.0469895 
66010 1 8.1745076 
67010 1 8.3019703 
68010 1 8.4293802 
69010 1 8.5567394 
70010 1 8.6840502 
71010 1 8.8113146 
72010 1 8.9385346 
73010 1 9.0657119 
74010 1 9.1928483 
75010 1 9.3199454 
76010 1 9.4470049 
77010 1 9.5740281 
78010 1 9.7010164 
79010 1 9.8279712 
80010 1 9.9548937 
81010 1 10.081785 
82010 1 10.208647 
83010 1 10.335479 
84010 1 10.462284 
85010 1 10.589062 
86010 1 10.715814 
87010 1 10.842541 
88010 1 10.969244 
89010 1 11.095924 
90010 1 11.222581 
91010 1 11.349216 
92010 1 11.47583 
93010 1 11.602423 
94010 1 11.728997 
95010 1 11.855552 
96010 1 11.982088 
97010 1 12.108606 
98010 1 12.235107 
99010 1 12.36159 
100010 1 12.488058 
101010 1 12.614509 
102010 1 12.740945 
103010 1 12.867366 
104010 1 12.993773 
105010 1 13.120165 
106010 1 13.246543 
107010 1 13.372909 
108010 1 13.499261 
109010 1 13.6256 
110010 1 13.751928 
111010 1 13.878243 
112010 1 14.004547 
113010 1 14.130839 
114010 1 14.25712 
115010 1 14.383391 
116010 1 14.509651 
117010 1 14.635901 
118010 1 14.762141 
119010 1 14.888371 
120010 1 15.014592 
121010 1 15.140804 
122010 1 15.267007 
123010 1 15.393201 
124010 1 15.519386 
125010 1 15.645563 
126010 1 15.771732 
127010 1 15.897893 
128010 1 16.024046 
129010 1 16.150192 
130010 1 16.27633 
131010 1 16.402461 
132010 1 16.528584 
133010 1 16.654701 
134010 1 16.780812 
135010 1 16.906915 
136010 1 17.033012 
137010 1 17.159103 
138010 1 17.285187 
139010 1 17.411266 
140010 1 17.537339 
141010 1 17.663405 
142010 1 17.789466 
143010 1 17.915522 
144010 1 18.041572 
145010 1 18.167617 
146010 1 18.293656 
147010 1 18.419691 
148010 1 18.54572 
149010 1 18.671745 
150010 1 18.797764 
151010 1 18.923779 
152010 1 19.04979 
153010 1 19.175796 
154010 1 19.301797 
155010 1 19.427794 
156010 1 19.553787 
157010 1 19.679775 
158010 1 19.80576 
159010 1 19.93174 
160010 1 20.057717 
161010 1 20.183689 
162010 1 20.309658 
163010 1 20.435623 
164010 1 20.561585 
165010 1 20.687542 
166010 1 20.813497 
167010 1 20.939447 
168010 1 21.065395 
169010 1 21.191339 
170010 1 21.317279 
171010 1 21.443217 
172010 1 21.569151 
173010 1 21.695082 
174010 1 21.82101 
175010 1 21.946935 
176010 1 22.072857 
177010 1 22.198776 
178010 1 22.324692 
179010 1 22.450606 
180010 1 22.576516 
181010 1 22.702424 
182010 1 22.82833 
183010 1 22.954232 
184010 1 23.080132 
185010 1 23.20603 
186010 1 23.331925 
187010 1 23.457817 
188010 1 23.583707 
189010 1 23.709595 
190010 1 23.83548 
191010 1 23.961363 
192010 1 24.087244 
193010 1 24.213122 
194010 1 24.338998 
195010 1 24.464872 
196010 1 24.590744 
197010 1 24.716614 
198010 1 24.842482 
199010 1 24.968347 
200010 1 25.094211 
201010 1 25.220073 
202010 1 25.345932 
203010 1 25.47179 
204010 1 25.597646 
205010 1 25.7235 
206010 1 25.849352 
207010 1 25.975202 
208010 1 26.101051 
209010 1 26.226898 
210010 1 26.352743 
211010 1 26.478586 
212010 1 26.604428 
213010 1 26.730267 
214010 1 26.856106 
215010 1 26.981942 
216010 1 27.107777 
217010 1 27.233611 
218010 1 27.359443 
219010 1 27.485273 
220010 1 27.611102 
221010 1 27.736929 
222010 1 27.862755 
223010 1 27.98858 
224010 1 28.114403 
225010 1 28.240224 
226010 1 28.366045 
227010 1 28.491863 
228010 1 28.617681 
229010 1 28.743497 
230010 1 28.869312 
231010 1 28.995125 
232010 1 29.120937 
233010 1 29.246748 
234010 1 29.372558 
235010 1 29.498366 
236010 1 29.624173 
237010 1 29.749979 
238010 1 29.875784 
239010 1 30.001588 
240010 1 30.12739 
241010 1 30.253191 
242010 1 30.378992 
243010 1 30.504791 
244010 1 30.630589 
245010 1 30.756385 
246010 1 30.882181 
247010 1 31.007976 
248010 1 31.133769 
249010 1 31.259562 
250010 1 31.385353 
251010 1 31.511144 
252010 1 31.636933 
253010 1 31.762722 
254010 1 31.88851 
255010 1 32.014296 
256010 1 32.140082 
257010 1 32.265866 
258010 1 32.39165 
259010 1 32.517433 
260010 1 32.643215 
261010 1 32.768996 
262010 1 32.894776 
263010 1 33.020555 
264010 1 33.146333 
265010 1 33.272111 
266010 1 33.397887 
267010 1 33.523663 
268010 1 33.649438 
269010 1 33.775212 
270010 1 33.900985 
271010 1 34.026758 
272010 1 34.152529 
273010 1 34.2783 
274010 1 34.40407 
275010 1 34.52984 
276010 1 34.655608 
277010 1 34.781376 
278010 1 34.907143 
279010 1 35.032909 
280010 1 35.158675 
281010 1 35.28444 
282010 1 35.410204 
283010 1 35.535967 
284010 1 35.66173 
285010 1 35.787492 
286010 1 35.913253 
287010 1 36.039014 
288010 1 36.164774 
289010 1 36.290533 
290010 1 36.416292 
291010 1 36.54205 
292010 1 36.667807 
293010 1 36.793564 
294010 1 36.91932 
295010 1 37.045075 
296010 1 37.17083 
297010 1 37.296585 
298010 1 37.422338 
299010 1 37.548091 
300010 1 37.673844 
301010 1 37.799595 
302010 1 37.925347 
303010 1 38.051097 
304010 1 38.176847 
305010 1 38.302597 
306010 1 38.428346 
307010 1 38.554094 
308010 1 38.679842 
309010 1 38.805589 
310010 1 38.931336 
311010 1 39.057082 
312010 1 39.182828 
313010 1 39.308573 
314010 1 39.434318 
315010 1 39.560062 
316010 1 39.685806 
317010 1 39.811549 
318010 1 39.937292 
319010 1 40.063034 
320010 1 40.188775 
321010 1 40.314517 
322010 1 40.440257 
323010 1 40.565997 
324010 1 40.691737 
325010 1 40.817477 
326010 1 40.943215 
327010 1 41.068954 
328010 1 41.194692 
329010 1 41.320429 
330010 1 41.446166 
331010 1 41.571903 
332010 1 41.697639 
333010 1 41.823374 
334010 1 41.94911 
335010 1 42.074844 
336010 1 42.200579 
337010 1 42.326313 
338010 1 42.452046 
339010 1 42.57778 
340010 1 42.703512 
341010 1 42.829245 
342010 1 42.954977 
343010 1 43.080708 
344010 1 43.206439 
345010 1 43.33217 
346010 1 43.4579 
347010 1 43.58363 
348010 1 43.70936 
349010 1 43.835089 
350010 1 43.960818 
351010 1 44.086546 
352010 1 44.212275 
353010 1 44.338002 
354010 1 44.46373 
355010 1 44.589457 
356010 1 44.715183 
357010 1 44.84091 
358010 1 44.966636 
359010 1 45.092361 
360010 1 45.218087 
361010 1 45.343812 
362010 1 45.469536 
363010 1 45.59526 
364010 1 45.720984 
365010 1 45.846708 
366010 1 45.972431 
367010 1 46.098154 
368010 1 46.223877 
369010 1 46.349599 
370010 1 46.475321 
371010 1 46.601043 
372010 1 46.726764 
373010 1 46.852485 
374010 1 46.978206 
375010 1 47.103926 
376010 1 47.229646 
377010 1 47.355366 
378010 1 47.481086 
379010 1 47.606805 
380010 1 47.732524 
381010 1 47.858243 
382010 1 47.983961 
383010 1 48.109679 
384010 1 48.235397 
385010 1 48.361115 
386010 1 48.486832 
387010 1 48.612549 
388010 1 48.738265 
389010 1 48.863982 
390010 1 48.989698 
391010 1 49.115414 
392010 1 49.24113 
393010 1 49.366845 
394010 1 49.49256 
395010 1 49.618275 
396010 1 49.743989 
397010 1 49.869704 
398010 1 49.995418 
399010 1 50.121132 
400010 1 50.246845 
401010 1 50.372559 
402010 1 50.498272 
403010 1 50.623984 
404010 1 50.749697 
405010 1 50.875409 
406010 1 51.001121 
407010 1 51.126833 
408010 1 51.252545 
409010 1 51.378256 
410010 1 51.503967 
411010 1 51.629678 
412010 1 51.755389 
413010 1 51.8811 
414010 1 52.00681 
415010 1 52.13252 
416010 1 52.25823 
417010 1 52.383939 
418010 1 52.509649 
419010 1 52.635358 
420010 1 52.761067 
421010 1 52.886775 
422010 1 53.012484 
423010 1 53.138192 
424010 1 53.2639 
425010 1 53.389608 
426010 1 53.515316 
427010 1 53.641023 
428010 1 53.76673 
429010 1 53.892437 
430010 1 54.018144 
431010 1 54.143851 
432010 1 54.269557 
433010 1 54.395264 
434010 1 54.52097 
435010 1 54.646676 
436010 1 54.772381 
437010 1 54.898087 
438010 1 55.023792 
439010 1 55.149497 
440010 1 55.275202 
441010 1 55.400907 
442010 1 55.526611 
443010 1 55.652316 
444010 1 55.77802 
445010 1 55.903724 
446010 1 56.029427 
447010 1 56.155131 
448010 1 56.280835 
449010 1 56.406538 
450010 1 56.532241 
451010 1 56.657944 
452010 1 56.783647 
453010 1 56.909349 
454010 1 57.035052 
455010 1 57.160754 
456010 1 57.286456 
457010 1 57.412158 
458010 1 57.537859 
459010 1 57.663561 
460010 1 57.789262 
461010 1 57.914964 
462010 1 58.040665 
463010 1 58.166366 
464010 1 58.292066 
465010 1 58.417767 
466010 1 58.543467 
467010 1 58.669168 
468010 1 58.794868 
469010 1 58.920568 
470010 1 59.046268 
471010 1 59.171967 
472010 1 59.297667 
473010 1 59.423366 
474010 1 59.549065 
475010 1 59.674764 
476010 1 59.800463 
477010 1 59.926162 
478010 1 60.051861 
479010 1 60.177559 
480010 1 60.303257 
481010 1 60.428955 
482010 1 60.554653 
483010 1 60.680351 
484010 1 60.806049 
485010 1 60.931747 
486010 1 61.057444 
487010 1 61.183142 
488010 1 61.308839 
489010 1 61.434536 
490010 1 61.560233 
491010 1 61.685929 
492010 1 61.811626 
493010 1 61.937323 
494010 1 62.063019 
495010 1 62.188715 
496010 1 62.314411 
497010 1 62.440107 
498010 1 62.565803 
499010 1 62.691499 
500010 1 62.817195 
501010 1 62.94289 
502010 1 63.068585 
503010 1 63.194281 
504010 1 63.319976 
505010 1 63.445671 
506010 1 63.571365 
507010 1 63.69706 
508010 1 63.822755 
509010 1 63.948449 
510010 1 64.074144 
511010 1 64.199838 
512010 1 64.325532 
513010 1 64.451226 
514010 1 64.57692 
515010 1 64.702614 
516010 1 64.828307 
517010 1 64.954001 
518010 1 65.079694 
519010 1 65.205388 
520010 1 65.331081 
521010 1 65.456774 
522010 1 65.582467 
523010 1 65.70816 
524010 1 65.833852 
525010 1 65.959545 
526010 1 66.085238 
527010 1 66.21093 
528010 1 66.336622 
529010 1 66.462314 
530010 1 66.588007 
531010 1 66.713699 
532010 1 66.83939 
533010 1 66.965082 
534010 1 67.090774 
535010 1 67.216465 
536010 1 67.342157 
537010 1 67.467848 
538010 1 67.593539 
539010 1 67.719231 
540010 1 67.844922 
541010 1 67.970613 
542010 1 68.096303 
543010 1 68.221994 
544010 1 68.347685 
545010 1 68.473375 
546010 1 68.599066 
547010 1 68.724756 
548010 1 68.850446 
549010 1 68.976137 
550010 1 69.101827 
551010 1 69.227517 
552010 1 69.353206 
553010 1 69.478896 
554010 1 69.604586 
555010 1 69.730276 
556010 1 69.855965 
557010 1 69.981654 
558010 1 70.107344 
559010 1 70.233033 
560010 1 70.358722 
561010 1 70.484411 
562010 1 70.6101 
563010 1 70.735789 
564010 1 70.861478 
565010 1 70.987166 
566010 1 71.112855 
567010 1 71.238543 
568010 1 71.364232 
569010 1 71.48992 
570010 1 71.615608 
571010 1 71.741297 
572010 1 71.866985 
573010 1 71.992673 
574010 1 72.118361 
575010 1 72.244048 
576010 1 72.369736 
577010 1 72.495424 
578010 1 72.621111 
579010 1 72.746799 
580010 1 72.872486 
581010 1 72.998174 
582010 1 73.123861 
583010 1 73.249548 
584010 1 73.375235 
585010 1 73.500922 
586010 1 73.626609 
587010 1 73.752296 
588010 1 73.877982 
589010 1 74.003669 
590010 1 74.129356 
591010 1 74.255042 
592010 1 74.380729 
593010 1 74.506415 
594010 1 74.632101 
595010 1 74.757788 
596010 1 74.883474 
597010 1 75.00916 
598010 1 75.134846 
599010 1 75.260532 
600010 1 75.386218 
601010 1 75.511903 
602010 1 75.637589 
603010 1 75.763275 
604010 1 75.88896 
605010 1 76.014646 
606010 1 76.140331 
607010 1 76.266017 
608010 1 76.391702 
609010 1 76.517387 
610010 1 76.643072 
611010 1 76.768757 
612010 1 76.894442 
613010 1 77.020127 
614010 1 77.145812 
615010 1 77.271497 
616010 1 77.397181 
617010 1 77.522866 
618010 1 77.648551 
619010 1 77.774235 
620010 1 77.89992 
621010 1 78.025604 
622010 1 78.151288 
623010 1 78.276972 
624010 1 78.402657 
625010 1 78.528341 
626010 1 78.654025 
627010 1 78.779709 
628010 1 78.905393 
629010 1 79.031077 
630010 1 79.15676 
631010 1 79.282444 
632010 1 79.408128 
633010 1 79.533811 
634010 1 79.659495 
635010 1 79.785178 
636010 1 79.910862 
637010 1 80.036545 
638010 1 80.162228 
639010 1 80.287912 
640010 1 80.413595 
641010 1 80.539278 
642010 1 80.664961 
643010 1 80.790644 
644010 1 80.916327 
645010 1 81.04201 
646010 1 81.167693 
647010 1 81.293375 
648010 1 81.419058 
649010 1 81.544741 
650010 1 81.670423 
651010 1 81.796106 
652010 1 81.921788 
653010 1 82.04747 
654010 1 82.173153 
655010 1 82.298835 
656010 1 82.424517 
657010 1 82.5502 
658010 1 82.675882 
659010 1 82.801564 
660010 1 82.927246 
661010 1 83.052928 
662010 1 83.17861 
663010 1 83.304291 
664010 1 83.429973 
665010 1 83.555655 
666010 1 83.681337 
667010 1 83.807018 
668010 1 83.9327 
669010 1 84.058381 
670010 1 84.184063 
671010 1 84.309744 
672010 1 84.435425 
673010 1 84.561107 
674010 1 84.686788 
675010 1 84.812469 
676010 1 84.93815 
677010 1 85.063831 
678010 1 85.189512 
679010 1 85.315193 
680010 1 85.440874 
681010 1 85.566555 
682010 1 85.692236 
683010 1 85.817917 
684010 1 85.943598 
685010 1 86.069278 
686010 1 86.194959 
687010 1 86.32064 
688010 1 86.44632 
689010 1 86.572001 
690010 1 86.697681 
691010 1 86.823361 
692010 1 86.949042 
693010 1 87.074722 
694010 1 87.200402 
695010 1 87.326083 
696010 1 87.451763 
697010 1 87.577443 
698010 1 87.703123 
699010 1 87.828803 
700010 1 87.954483 
701010 1 88.080163 
702010 1 88.205843 
703010 1 88.331523 
704010 1 88.457202 
705010 1 88.582882 
706010 1 88.708562 
707010 1 88.834241 
708010 1 88.959921 
709010 1 89.085601 
710010 1 89.21128 
711010 1 89.33696 
712010 1 89.462639 
713010 1 89.588318 
714010 1 89.713998 
715010 1 89.839677 
716010 1 89.965356 
717010 1 90.091035 
718010 1 90.216715 
719010 1 90.342394 
720010 1 90.468073 
721010 1 90.593752 
722010 1 90.719431 
723010 1 90.84511 
724010 1 90.970789 
725010 1 91.096468 
726010 1 91.222146 
727010 1 91.347825 
728010 1 91.473504 
729010 1 91.599183 
730010 1 91.724861 
731010 1 91.85054 
732010 1 91.976218 
733010 1 92.101897 
734010 1 92.227575 
735010 1 92.353254 
736010 1 92.478932 
737010 1 92.604611 
738010 1 92.730289 
739010 1 92.855967 
740010 1 92.981646 
741010 1 93.107324 
742010 1 93.233002 
743010 1 93.35868 
744010 1 93.484358 
745010 1 93.610036 
746010 1 93.735714 
747010 1 93.861392 
748010 1 93.98707 
749010 1 94.112748 
750010 1 94.238426 
751010 1 94.364104 
752010 1 94.489782 
753010 1 94.615459 
754010 1 94.741137 
755010 1 94.866815 
756010 1 94.992493 
757010 1 95.11817 
758010 1 95.243848 
759010 1 95.369525 
760010 1 95.495203 
761010 1 95.62088 
762010 1 95.746558 
763010 1 95.872235 
764010 1 95.997912 
765010 1 96.12359 
766010 1 96.249267 
767010 1 96.374944 
768010 1 96.500621 
769010 1 96.626299 
770010 1 96.751976 
771010 1 96.877653 
772010 1 97.00333 
773010 1 97.129007 
774010 1 97.254684 
775010 1 97.380361 
776010 1 97.506038 
777010 1 97.631715 
778010 1 97.757392 
779010 1 97.883069 
780010 1 98.008745 
781010 1 98.134422 
782010 1 98.260099 
783010 1 98.385776 
784010 1 98.511452 
785010 1 98.637129 
786010 1 98.762805 
787010 1 98.888482 
788010 1 99.014159 
789010 1 99.139835 
790010 1 99.265512 
791010 1 99.391188 
792010 1 99.516864 
793010 1 99.642541 
794010 1 99.768217 
795010 1 99.893893 
796010 1 100.01957 
797010 1 100.14525 
798010 1 100.27092 
799010 1 100.3966 
800010 1 100.52227 
801010 1 100.64795 
802010 1 100.77363 
803010 1 100.8993 
804010 1 101.02498 
805010 1 101.15065 
806010 1 101.27633 
807010 1 101.40201 
808010 1 101.52768 
809010 1 101.65336 
810010 1 101.77903 
811010 1 101.90471 
812010 1 102.03039 
813010 1 102.15606 
814010 1 102.28174 
815010 1 102.40741 
816010 1 102.53309 
817010 1 102.65876 
818010 1 102.78444 
819010 1 102.91012 
820010 1 103.03579 
821010 1 103.16147 
822010 1 103.28714 
823010 1 103.41282 
824010 1 103.53849 
825010 1 103.66417 
826010 1 103.78984 
827010 1 103.91552 
828010 1 104.04119 
829010 1 104.16687 
830010 1 104.29255 
831010 1 104.41822 
832010 1 104.5439 
833010 1 104.66957 
834010 1 104.79525 
835010 1 104.92092 
836010 1 105.0466 
837010 1 105.17227 
838010 1 105.29795 
839010 1 105.42362 
840010 1 105.5493 
841010 1 105.67497 
842010 1 105.80065 
843010 1 105.92632 
844010 1 106.052 
845010 1 106.17767 
846010 1 106.30335 
847010 1 106.42902 
848010 1 106.5547 
849010 1 106.68037 
850010 1 106.80604 
851010 1 106.93172 
852010 1 107.05739 
853010 1 107.18307 
854010 1 107.30874 
855010 1 107.43442 
856010 1 107.56009 
857010 1 107.68577 
858010 1 107.81144 
859010 1 107.93712 
860010 1 108.06279 
861010 1 108.18847 
862010 1 108.31414 
863010 1 108.43981 
864010 1 108.56549 
865010 1 108.69116 
866010 1 108.81684 
867010 1 108.94251 
868010 1 109.06819 
869010 1 109.19386 
870010 1 109.31953 
871010 1 109.44521 
872010 1 109.57088 
873010 1 109.69656 
874010 1 109.82223 
875010 1 109.94791 
876010 1 110.07358 
877010 1 110.19925 
878010 1 110.32493 
879010 1 110.4506 
880010 1 110.57628 
881010 1 110.70195 
882010 1 110.82762 
883010 1 110.9533 
884010 1 111.07897 
885010 1 111.20464 
886010 1 111.33032 
887010 1 111.45599 
888010 1 111.58167 
889010 1 111.70734 
890010 1 111.83301 
891010 1 111.95869 
892010 1 112.08436 
893010 1 112.21004 
894010 1 112.33571 
895010 1 112.46138 
896010 1 112.58706 
897010 1 112.71273 
898010 1 112.8384 
899010 1 112.96408 
900010 1 113.08975 
901010 1 113.21542 
902010 1 113.3411 
903010 1 113.46677 
904010 1 113.59244 
905010 1 113.71812 
906010 1 113.84379 
907010 1 113.96946 
908010 1 114.09514 
909010 1 114.22081 
910010 1 114.34648 
911010 1 114.47216 
912010 1 114.59783 
913010 1 114.7235 
914010 1 114.84918 
915010 1 114.97485 
916010 1 115.10052 
917010 1 115.2262 
918010 1 115.35187 
919010 1 115.47754 
920010 1 115.60322 
921010 1 115.72889 
922010 1 115.85456 
923010 1 115.98024 
924010 1 116.10591 
925010 1 116.23158 
926010 1 116.35725 
927010 1 116.48293 
928010 1 116.6086 
929010 1 116.73427 
930010 1 116.85995 
931010 1 116.98562 
932010 1 117.11129 
933010 1 117.23697 
934010 1 117.36264 
935010 1 117.48831 
936010 1 117.61398 
937010 1 117.73966 
938010 1 117.86533 
939010 1 117.991 
940010 1 118.11667 
941010 1 118.24235 
942010 1 118.36802 
943010 1 118.49369 
944010 1 118.61937 
945010 1 118.74504 
946010 1 118.87071 
947010 1 118.99638 
948010 1 119.12206 
949010 1 119.24773 
950010 1 119.3734 
951010 1 119.49907 
952010 1 119.62475 
953010 1 119.75042 
954010 1 119.87609 
