! AWR Design Environment (7670) Wed Mar 16 14:40:56 2016
! Document = 'RL'
! nPorts: 1, nXvals: 1000

# HZ Z MA R 50
!Freq MagZ11 AngZ11 
1000000 2.3620196 32.141908 
2000000 3.2119382 51.488113 
3000000 4.267579 62.053313 
4000000 5.4098232 68.303016 
5000000 6.5938166 72.343213 
6000000 7.8005719 75.143949 
7000000 9.0209588 77.19075 
8000000 10.25011 78.748274 
9000000 11.485211 79.97156 
10000000 12.72453 80.956939 
11000000 13.966945 81.767216 
12000000 15.211696 82.445004 
13000000 16.458253 83.02019 
14000000 17.706236 83.514339 
15000000 18.955362 83.943389 
16000000 20.20542 84.31937 
17000000 21.456246 84.651527 
18000000 22.707714 84.947081 
19000000 23.959724 85.211754 
20000000 25.212193 85.450135 
21000000 26.465058 85.665949 
22000000 27.718264 85.862251 
23000000 28.971768 86.041568 
24000000 30.225531 86.206011 
25000000 31.479524 86.357353 
26000000 32.73372 86.497099 
27000000 33.988096 86.626531 
28000000 35.242633 86.746748 
29000000 36.497315 86.858701 
30000000 37.752126 86.963211 
31000000 39.007055 87.060998 
32000000 40.262091 87.152688 
33000000 41.517224 87.238835 
34000000 42.772445 87.319925 
35000000 44.027747 87.396392 
36000000 45.283122 87.468619 
37000000 46.538566 87.536949 
38000000 47.794073 87.601689 
39000000 49.049637 87.663116 
40000000 50.305255 87.721475 
41000000 51.560923 87.776993 
42000000 52.816637 87.82987 
43000000 54.072394 87.880292 
44000000 55.32819 87.928424 
45000000 56.584024 87.974421 
46000000 57.839893 88.018419 
47000000 59.095795 88.060548 
48000000 60.351727 88.100924 
49000000 61.607688 88.139653 
50000000 62.863676 88.176834 
51000000 64.119689 88.212559 
52000000 65.375727 88.246911 
53000000 66.631787 88.279968 
54000000 67.887868 88.311802 
55000000 69.14397 88.34248 
56000000 70.40009 88.372062 
57000000 71.656229 88.400607 
58000000 72.912385 88.428169 
59000000 74.168557 88.454797 
60000000 75.424745 88.480539 
61000000 76.680947 88.505436 
62000000 77.937164 88.529532 
63000000 79.193394 88.552862 
64000000 80.449636 88.575464 
65000000 81.705891 88.597372 
66000000 82.962157 88.618615 
67000000 84.218434 88.639225 
68000000 85.474722 88.659229 
69000000 86.73102 88.678654 
70000000 87.987328 88.697523 
71000000 89.243645 88.715862 
72000000 90.499971 88.733691 
73000000 91.756305 88.751033 
74000000 93.012647 88.767905 
75000000 94.268998 88.784328 
76000000 95.525356 88.800319 
77000000 96.781721 88.815895 
78000000 98.038093 88.831072 
79000000 99.294472 88.845864 
80000000 100.55086 88.860287 
81000000 101.80725 88.874354 
82000000 103.06365 88.888078 
83000000 104.32005 88.901471 
84000000 105.57646 88.914546 
85000000 106.83287 88.927313 
86000000 108.08929 88.939783 
87000000 109.34572 88.951967 
88000000 110.60215 88.963874 
89000000 111.85858 88.975513 
90000000 113.11502 88.986894 
91000000 114.37146 88.998025 
92000000 115.62791 89.008913 
93000000 116.88436 89.019568 
94000000 118.14081 89.029996 
95000000 119.39727 89.040205 
96000000 120.65374 89.050201 
97000000 121.9102 89.059991 
98000000 123.16667 89.069581 
99000000 124.42314 89.078978 
1e+008 125.67962 89.088186 
1.01e+008 126.9361 89.097213 
1.02e+008 128.19258 89.106062 
1.03e+008 129.44907 89.11474 
1.04e+008 130.70556 89.123251 
1.05e+008 131.96205 89.131599 
1.06e+008 133.21854 89.13979 
1.07e+008 134.47504 89.147829 
1.08e+008 135.73154 89.155718 
1.09e+008 136.98804 89.163463 
1.1e+008 138.24454 89.171066 
1.11e+008 139.50105 89.178533 
1.12e+008 140.75756 89.185867 
1.13e+008 142.01407 89.19307 
1.14e+008 143.27059 89.200148 
1.15e+008 144.5271 89.207102 
1.16e+008 145.78362 89.213937 
1.17e+008 147.04014 89.220654 
1.18e+008 148.29666 89.227258 
1.19e+008 149.55318 89.233751 
1.2e+008 150.80971 89.240136 
1.21e+008 152.06624 89.246415 
1.22e+008 153.32277 89.252591 
1.23e+008 154.5793 89.258667 
1.24e+008 155.83583 89.264645 
1.25e+008 157.09236 89.270527 
1.26e+008 158.3489 89.276316 
1.27e+008 159.60544 89.282013 
1.28e+008 160.86198 89.287622 
1.29e+008 162.11852 89.293144 
1.3e+008 163.37506 89.298581 
1.31e+008 164.6316 89.303935 
1.32e+008 165.88815 89.309207 
1.33e+008 167.1447 89.314401 
1.34e+008 168.40124 89.319517 
1.35e+008 169.65779 89.324557 
1.36e+008 170.91434 89.329523 
1.37e+008 172.17089 89.334416 
1.38e+008 173.42745 89.339239 
1.39e+008 174.684 89.343992 
1.4e+008 175.94056 89.348678 
1.41e+008 177.19711 89.353297 
1.42e+008 178.45367 89.35785 
1.43e+008 179.71023 89.362341 
1.44e+008 180.96679 89.366768 
1.45e+008 182.22335 89.371135 
1.46e+008 183.47991 89.375442 
1.47e+008 184.73647 89.37969 
1.48e+008 185.99304 89.383881 
1.49e+008 187.2496 89.388016 
1.5e+008 188.50617 89.392096 
1.51e+008 189.76274 89.396121 
1.52e+008 191.0193 89.400094 
1.53e+008 192.27587 89.404015 
1.54e+008 193.53244 89.407884 
1.55e+008 194.78901 89.411704 
1.56e+008 196.04558 89.415475 
1.57e+008 197.30216 89.419198 
1.58e+008 198.55873 89.422874 
1.59e+008 199.8153 89.426503 
1.6e+008 201.07188 89.430087 
1.61e+008 202.32845 89.433627 
1.62e+008 203.58503 89.437123 
1.63e+008 204.8416 89.440576 
1.64e+008 206.09818 89.443987 
1.65e+008 207.35476 89.447356 
1.66e+008 208.61134 89.450685 
1.67e+008 209.86792 89.453974 
1.68e+008 211.1245 89.457224 
1.69e+008 212.38108 89.460436 
1.7e+008 213.63766 89.463609 
1.71e+008 214.89424 89.466746 
1.72e+008 216.15083 89.469846 
1.73e+008 217.40741 89.47291 
1.74e+008 218.664 89.47594 
1.75e+008 219.92058 89.478934 
1.76e+008 221.17717 89.481894 
1.77e+008 222.43375 89.484821 
1.78e+008 223.69034 89.487716 
1.79e+008 224.94693 89.490577 
1.8e+008 226.20351 89.493407 
1.81e+008 227.4601 89.496206 
1.82e+008 228.71669 89.498974 
1.83e+008 229.97328 89.501712 
1.84e+008 231.22987 89.50442 
1.85e+008 232.48646 89.507098 
1.86e+008 233.74305 89.509748 
1.87e+008 234.99964 89.51237 
1.88e+008 236.25623 89.514963 
1.89e+008 237.51283 89.51753 
1.9e+008 238.76942 89.520069 
1.91e+008 240.02601 89.522581 
1.92e+008 241.2826 89.525068 
1.93e+008 242.5392 89.527529 
1.94e+008 243.79579 89.529964 
1.95e+008 245.05239 89.532374 
1.96e+008 246.30898 89.53476 
1.97e+008 247.56558 89.537121 
1.98e+008 248.82218 89.539459 
1.99e+008 250.07877 89.541773 
2e+008 251.33537 89.544064 
2.01e+008 252.59197 89.546333 
2.02e+008 253.84857 89.548578 
2.03e+008 255.10516 89.550802 
2.04e+008 256.36176 89.553004 
2.05e+008 257.61836 89.555184 
2.06e+008 258.87496 89.557343 
2.07e+008 260.13156 89.559482 
2.08e+008 261.38816 89.5616 
2.09e+008 262.64476 89.563697 
2.1e+008 263.90136 89.565775 
2.11e+008 265.15796 89.567833 
2.12e+008 266.41456 89.569871 
2.13e+008 267.67117 89.57189 
2.14e+008 268.92777 89.573891 
2.15e+008 270.18437 89.575873 
2.16e+008 271.44097 89.577836 
2.17e+008 272.69758 89.579781 
2.18e+008 273.95418 89.581709 
2.19e+008 275.21078 89.583619 
2.2e+008 276.46739 89.585511 
2.21e+008 277.72399 89.587387 
2.22e+008 278.9806 89.589245 
2.23e+008 280.2372 89.591087 
2.24e+008 281.49381 89.592913 
2.25e+008 282.75041 89.594722 
2.26e+008 284.00702 89.596515 
2.27e+008 285.26362 89.598293 
2.28e+008 286.52023 89.600054 
2.29e+008 287.77684 89.601801 
2.3e+008 289.03344 89.603532 
2.31e+008 290.29005 89.605248 
2.32e+008 291.54666 89.60695 
2.33e+008 292.80327 89.608637 
2.34e+008 294.05987 89.610309 
2.35e+008 295.31648 89.611967 
2.36e+008 296.57309 89.613612 
2.37e+008 297.8297 89.615242 
2.38e+008 299.08631 89.616858 
2.39e+008 300.34292 89.618461 
2.4e+008 301.59953 89.620051 
2.41e+008 302.85614 89.621628 
2.42e+008 304.11275 89.623191 
2.43e+008 305.36936 89.624742 
2.44e+008 306.62597 89.62628 
2.45e+008 307.88258 89.627805 
2.46e+008 309.13919 89.629318 
2.47e+008 310.3958 89.630819 
2.48e+008 311.65241 89.632307 
2.49e+008 312.90902 89.633784 
2.5e+008 314.16563 89.635249 
2.51e+008 315.42224 89.636702 
2.52e+008 316.67886 89.638143 
2.53e+008 317.93547 89.639574 
2.54e+008 319.19208 89.640993 
2.55e+008 320.44869 89.6424 
2.56e+008 321.7053 89.643797 
2.57e+008 322.96192 89.645183 
2.58e+008 324.21853 89.646558 
2.59e+008 325.47514 89.647923 
2.6e+008 326.73176 89.649277 
2.61e+008 327.98837 89.650621 
2.62e+008 329.24498 89.651954 
2.63e+008 330.5016 89.653278 
2.64e+008 331.75821 89.654591 
2.65e+008 333.01483 89.655894 
2.66e+008 334.27144 89.657188 
2.67e+008 335.52806 89.658472 
2.68e+008 336.78467 89.659746 
2.69e+008 338.04129 89.661011 
2.7e+008 339.2979 89.662267 
2.71e+008 340.55452 89.663513 
2.72e+008 341.81113 89.66475 
2.73e+008 343.06775 89.665978 
2.74e+008 344.32436 89.667197 
2.75e+008 345.58098 89.668407 
2.76e+008 346.8376 89.669608 
2.77e+008 348.09421 89.670801 
2.78e+008 349.35083 89.671985 
2.79e+008 350.60744 89.673161 
2.8e+008 351.86406 89.674328 
2.81e+008 353.12068 89.675487 
2.82e+008 354.3773 89.676638 
2.83e+008 355.63391 89.677781 
2.84e+008 356.89053 89.678915 
2.85e+008 358.14715 89.680042 
2.86e+008 359.40376 89.68116 
2.87e+008 360.66038 89.682271 
2.88e+008 361.917 89.683375 
2.89e+008 363.17362 89.68447 
2.9e+008 364.43024 89.685558 
2.91e+008 365.68685 89.686639 
2.92e+008 366.94347 89.687712 
2.93e+008 368.20009 89.688778 
2.94e+008 369.45671 89.689836 
2.95e+008 370.71333 89.690888 
2.96e+008 371.96995 89.691932 
2.97e+008 373.22657 89.692969 
2.98e+008 374.48319 89.693999 
2.99e+008 375.7398 89.695023 
3e+008 376.99642 89.696039 
3.01e+008 378.25304 89.697049 
3.02e+008 379.50966 89.698052 
3.03e+008 380.76628 89.699049 
3.04e+008 382.0229 89.700039 
3.05e+008 383.27952 89.701022 
3.06e+008 384.53614 89.701999 
3.07e+008 385.79276 89.70297 
3.08e+008 387.04938 89.703934 
3.09e+008 388.306 89.704892 
3.1e+008 389.56262 89.705844 
3.11e+008 390.81924 89.70679 
3.12e+008 392.07586 89.70773 
3.13e+008 393.33249 89.708664 
3.14e+008 394.58911 89.709591 
3.15e+008 395.84573 89.710513 
3.16e+008 397.10235 89.711429 
3.17e+008 398.35897 89.71234 
3.18e+008 399.61559 89.713244 
3.19e+008 400.87221 89.714143 
3.2e+008 402.12883 89.715037 
3.21e+008 403.38545 89.715924 
3.22e+008 404.64208 89.716806 
3.23e+008 405.8987 89.717683 
3.24e+008 407.15532 89.718555 
3.25e+008 408.41194 89.719421 
3.26e+008 409.66856 89.720281 
3.27e+008 410.92519 89.721137 
3.28e+008 412.18181 89.721987 
3.29e+008 413.43843 89.722832 
3.3e+008 414.69505 89.723672 
3.31e+008 415.95168 89.724506 
3.32e+008 417.2083 89.725336 
3.33e+008 418.46492 89.726161 
3.34e+008 419.72154 89.726981 
3.35e+008 420.97817 89.727796 
3.36e+008 422.23479 89.728606 
3.37e+008 423.49141 89.729411 
3.38e+008 424.74804 89.730212 
3.39e+008 426.00466 89.731008 
3.4e+008 427.26128 89.731799 
3.41e+008 428.51791 89.732585 
3.42e+008 429.77453 89.733367 
3.43e+008 431.03115 89.734145 
3.44e+008 432.28778 89.734917 
3.45e+008 433.5444 89.735686 
3.46e+008 434.80102 89.73645 
3.47e+008 436.05765 89.737209 
3.48e+008 437.31427 89.737964 
3.49e+008 438.57089 89.738715 
3.5e+008 439.82752 89.739462 
3.51e+008 441.08414 89.740204 
3.52e+008 442.34077 89.740942 
3.53e+008 443.59739 89.741676 
3.54e+008 444.85402 89.742406 
3.55e+008 446.11064 89.743131 
3.56e+008 447.36726 89.743853 
3.57e+008 448.62389 89.74457 
3.58e+008 449.88051 89.745284 
3.59e+008 451.13714 89.745993 
3.6e+008 452.39376 89.746699 
3.61e+008 453.65039 89.7474 
3.62e+008 454.90701 89.748098 
3.63e+008 456.16364 89.748792 
3.64e+008 457.42026 89.749482 
3.65e+008 458.67689 89.750169 
3.66e+008 459.93351 89.750851 
3.67e+008 461.19014 89.75153 
3.68e+008 462.44676 89.752205 
3.69e+008 463.70339 89.752877 
3.7e+008 464.96001 89.753545 
3.71e+008 466.21664 89.754209 
3.72e+008 467.47327 89.75487 
3.73e+008 468.72989 89.755527 
3.74e+008 469.98652 89.75618 
3.75e+008 471.24314 89.756831 
3.76e+008 472.49977 89.757477 
3.77e+008 473.75639 89.758121 
3.78e+008 475.01302 89.758761 
3.79e+008 476.26965 89.759397 
3.8e+008 477.52627 89.76003 
3.81e+008 478.7829 89.76066 
3.82e+008 480.03952 89.761287 
3.83e+008 481.29615 89.76191 
3.84e+008 482.55278 89.76253 
3.85e+008 483.8094 89.763147 
3.86e+008 485.06603 89.76376 
3.87e+008 486.32266 89.764371 
3.88e+008 487.57928 89.764978 
3.89e+008 488.83591 89.765582 
3.9e+008 490.09253 89.766183 
3.91e+008 491.34916 89.766781 
3.92e+008 492.60579 89.767376 
3.93e+008 493.86241 89.767968 
3.94e+008 495.11904 89.768557 
3.95e+008 496.37567 89.769143 
3.96e+008 497.6323 89.769726 
3.97e+008 498.88892 89.770306 
3.98e+008 500.14555 89.770883 
3.99e+008 501.40218 89.771457 
4e+008 502.6588 89.772029 
4.01e+008 503.91543 89.772597 
4.02e+008 505.17206 89.773163 
4.03e+008 506.42868 89.773726 
4.04e+008 507.68531 89.774286 
4.05e+008 508.94194 89.774843 
4.06e+008 510.19857 89.775398 
4.07e+008 511.45519 89.775949 
4.08e+008 512.71182 89.776499 
4.09e+008 513.96845 89.777045 
4.1e+008 515.22508 89.777589 
4.11e+008 516.4817 89.77813 
4.12e+008 517.73833 89.778668 
4.13e+008 518.99496 89.779204 
4.14e+008 520.25159 89.779738 
4.15e+008 521.50822 89.780268 
4.16e+008 522.76484 89.780797 
4.17e+008 524.02147 89.781322 
4.18e+008 525.2781 89.781845 
4.19e+008 526.53473 89.782366 
4.2e+008 527.79136 89.782884 
4.21e+008 529.04798 89.7834 
4.22e+008 530.30461 89.783913 
4.23e+008 531.56124 89.784424 
4.24e+008 532.81787 89.784932 
4.25e+008 534.0745 89.785438 
4.26e+008 535.33112 89.785942 
4.27e+008 536.58775 89.786443 
4.28e+008 537.84438 89.786942 
4.29e+008 539.10101 89.787439 
4.3e+008 540.35764 89.787933 
4.31e+008 541.61427 89.788425 
4.32e+008 542.87089 89.788915 
4.33e+008 544.12752 89.789403 
4.34e+008 545.38415 89.789888 
4.35e+008 546.64078 89.790371 
4.36e+008 547.89741 89.790852 
4.37e+008 549.15404 89.79133 
4.38e+008 550.41067 89.791807 
4.39e+008 551.6673 89.792281 
4.4e+008 552.92392 89.792753 
4.41e+008 554.18055 89.793223 
4.42e+008 555.43718 89.793691 
4.43e+008 556.69381 89.794156 
4.44e+008 557.95044 89.79462 
4.45e+008 559.20707 89.795082 
4.46e+008 560.4637 89.795541 
4.47e+008 561.72033 89.795998 
4.48e+008 562.97696 89.796454 
4.49e+008 564.23359 89.796907 
4.5e+008 565.49021 89.797358 
4.51e+008 566.74684 89.797808 
4.52e+008 568.00347 89.798255 
4.53e+008 569.2601 89.7987 
4.54e+008 570.51673 89.799144 
4.55e+008 571.77336 89.799585 
4.56e+008 573.02999 89.800025 
4.57e+008 574.28662 89.800462 
4.58e+008 575.54325 89.800898 
4.59e+008 576.79988 89.801332 
4.6e+008 578.05651 89.801764 
4.61e+008 579.31314 89.802194 
4.62e+008 580.56977 89.802622 
4.63e+008 581.8264 89.803048 
4.64e+008 583.08303 89.803473 
4.65e+008 584.33966 89.803895 
4.66e+008 585.59629 89.804316 
4.67e+008 586.85292 89.804735 
4.68e+008 588.10955 89.805152 
4.69e+008 589.36618 89.805568 
4.7e+008 590.62281 89.805981 
4.71e+008 591.87944 89.806393 
4.72e+008 593.13606 89.806804 
4.73e+008 594.39269 89.807212 
4.74e+008 595.64932 89.807619 
4.75e+008 596.90595 89.808024 
4.76e+008 598.16258 89.808427 
4.77e+008 599.41921 89.808829 
4.78e+008 600.67584 89.809229 
4.79e+008 601.93248 89.809627 
4.8e+008 603.18911 89.810023 
4.81e+008 604.44574 89.810418 
4.82e+008 605.70237 89.810812 
4.83e+008 606.959 89.811203 
4.84e+008 608.21563 89.811594 
4.85e+008 609.47226 89.811982 
4.86e+008 610.72889 89.812369 
4.87e+008 611.98552 89.812754 
4.88e+008 613.24215 89.813138 
4.89e+008 614.49878 89.81352 
4.9e+008 615.75541 89.813901 
4.91e+008 617.01204 89.81428 
4.92e+008 618.26867 89.814657 
4.93e+008 619.5253 89.815033 
4.94e+008 620.78193 89.815407 
4.95e+008 622.03856 89.81578 
4.96e+008 623.29519 89.816152 
4.97e+008 624.55182 89.816522 
4.98e+008 625.80845 89.81689 
4.99e+008 627.06508 89.817257 
5e+008 628.32171 89.817622 
5.01e+008 629.57834 89.817987 
5.02e+008 630.83498 89.818349 
5.03e+008 632.09161 89.81871 
5.04e+008 633.34824 89.81907 
5.05e+008 634.60487 89.819428 
5.06e+008 635.8615 89.819785 
5.07e+008 637.11813 89.820141 
5.08e+008 638.37476 89.820495 
5.09e+008 639.63139 89.820847 
5.1e+008 640.88802 89.821198 
5.11e+008 642.14465 89.821548 
5.12e+008 643.40128 89.821897 
5.13e+008 644.65791 89.822244 
5.14e+008 645.91455 89.82259 
5.15e+008 647.17118 89.822934 
5.16e+008 648.42781 89.823278 
5.17e+008 649.68444 89.823619 
5.18e+008 650.94107 89.82396 
5.19e+008 652.1977 89.824299 
5.2e+008 653.45433 89.824637 
5.21e+008 654.71096 89.824974 
5.22e+008 655.9676 89.825309 
5.23e+008 657.22423 89.825643 
5.24e+008 658.48086 89.825976 
5.25e+008 659.73749 89.826307 
5.26e+008 660.99412 89.826637 
5.27e+008 662.25075 89.826966 
5.28e+008 663.50738 89.827294 
5.29e+008 664.76401 89.82762 
5.3e+008 666.02065 89.827946 
5.31e+008 667.27728 89.82827 
5.32e+008 668.53391 89.828592 
5.33e+008 669.79054 89.828914 
5.34e+008 671.04717 89.829234 
5.35e+008 672.3038 89.829554 
5.36e+008 673.56043 89.829872 
5.37e+008 674.81707 89.830188 
5.38e+008 676.0737 89.830504 
5.39e+008 677.33033 89.830819 
5.4e+008 678.58696 89.831132 
5.41e+008 679.84359 89.831444 
5.42e+008 681.10022 89.831755 
5.43e+008 682.35686 89.832065 
5.44e+008 683.61349 89.832374 
5.45e+008 684.87012 89.832681 
5.46e+008 686.12675 89.832988 
5.47e+008 687.38338 89.833293 
5.48e+008 688.64001 89.833597 
5.49e+008 689.89665 89.8339 
5.5e+008 691.15328 89.834202 
5.51e+008 692.40991 89.834503 
5.52e+008 693.66654 89.834803 
5.53e+008 694.92317 89.835102 
5.54e+008 696.1798 89.835399 
5.55e+008 697.43644 89.835696 
5.56e+008 698.69307 89.835991 
5.57e+008 699.9497 89.836286 
5.58e+008 701.20633 89.836579 
5.59e+008 702.46296 89.836872 
5.6e+008 703.7196 89.837163 
5.61e+008 704.97623 89.837453 
5.62e+008 706.23286 89.837742 
5.63e+008 707.48949 89.838031 
5.64e+008 708.74612 89.838318 
5.65e+008 710.00276 89.838604 
5.66e+008 711.25939 89.838889 
5.67e+008 712.51602 89.839173 
5.68e+008 713.77265 89.839456 
5.69e+008 715.02929 89.839738 
5.7e+008 716.28592 89.84002 
5.71e+008 717.54255 89.8403 
5.72e+008 718.79918 89.840579 
5.73e+008 720.05581 89.840857 
5.74e+008 721.31245 89.841134 
5.75e+008 722.56908 89.841411 
5.76e+008 723.82571 89.841686 
5.77e+008 725.08234 89.84196 
5.78e+008 726.33898 89.842234 
5.79e+008 727.59561 89.842506 
5.8e+008 728.85224 89.842778 
5.81e+008 730.10887 89.843048 
5.82e+008 731.3655 89.843318 
5.83e+008 732.62214 89.843587 
5.84e+008 733.87877 89.843855 
5.85e+008 735.1354 89.844122 
5.86e+008 736.39203 89.844388 
5.87e+008 737.64867 89.844653 
5.88e+008 738.9053 89.844917 
5.89e+008 740.16193 89.84518 
5.9e+008 741.41856 89.845443 
5.91e+008 742.6752 89.845704 
5.92e+008 743.93183 89.845965 
5.93e+008 745.18846 89.846225 
5.94e+008 746.44509 89.846483 
5.95e+008 747.70173 89.846741 
5.96e+008 748.95836 89.846999 
5.97e+008 750.21499 89.847255 
5.98e+008 751.47162 89.84751 
5.99e+008 752.72826 89.847765 
6e+008 753.98489 89.848019 
6.01e+008 755.24152 89.848271 
6.02e+008 756.49815 89.848524 
6.03e+008 757.75479 89.848775 
6.04e+008 759.01142 89.849025 
6.05e+008 760.26805 89.849275 
6.06e+008 761.52469 89.849523 
6.07e+008 762.78132 89.849771 
6.08e+008 764.03795 89.850018 
6.09e+008 765.29458 89.850265 
6.1e+008 766.55122 89.85051 
6.11e+008 767.80785 89.850755 
6.12e+008 769.06448 89.850999 
6.13e+008 770.32111 89.851242 
6.14e+008 771.57775 89.851484 
6.15e+008 772.83438 89.851725 
6.16e+008 774.09101 89.851966 
6.17e+008 775.34765 89.852206 
6.18e+008 776.60428 89.852445 
6.19e+008 777.86091 89.852684 
6.2e+008 779.11755 89.852921 
6.21e+008 780.37418 89.853158 
6.22e+008 781.63081 89.853394 
6.23e+008 782.88744 89.853629 
6.24e+008 784.14408 89.853864 
6.25e+008 785.40071 89.854098 
6.26e+008 786.65734 89.854331 
6.27e+008 787.91398 89.854563 
6.28e+008 789.17061 89.854795 
6.29e+008 790.42724 89.855026 
6.3e+008 791.68387 89.855256 
