! AWR Design Environment (7670) Wed Mar 16 14:40:56 2016
! Document = 'RL'
! nPorts: 1, nXvals: 1000

# HZ Z RI R 50
!Freq ReZ11 ImZ11 
1000000 2 1.2566371 
2000000 2 2.5132741 
3000000 2 3.7699112 
4000000 2 5.0265482 
5000000 2 6.2831853 
6000000 2 7.5398224 
7000000 2 8.7964594 
8000000 2 10.053096 
9000000 2 11.309734 
10000000 2 12.566371 
11000000 2 13.823008 
12000000 2 15.079645 
13000000 2 16.336282 
14000000 2 17.592919 
15000000 2 18.849556 
16000000 2 20.106193 
17000000 2 21.36283 
18000000 2 22.619467 
19000000 2 23.876104 
20000000 2 25.132741 
21000000 2 26.389378 
22000000 2 27.646015 
23000000 2 28.902652 
24000000 2 30.159289 
25000000 2 31.415927 
26000000 2 32.672564 
27000000 2 33.929201 
28000000 2 35.185838 
29000000 2 36.442475 
30000000 2 37.699112 
31000000 2 38.955749 
32000000 2 40.212386 
33000000 2 41.469023 
34000000 2 42.72566 
35000000 2 43.982297 
36000000 2 45.238934 
37000000 2 46.495571 
38000000 2 47.752208 
39000000 2 49.008845 
40000000 2 50.265482 
41000000 2 51.52212 
42000000 2 52.778757 
43000000 2 54.035394 
44000000 2 55.292031 
45000000 2 56.548668 
46000000 2 57.805305 
47000000 2 59.061942 
48000000 2 60.318579 
49000000 2 61.575216 
50000000 2 62.831853 
51000000 2 64.08849 
52000000 2 65.345127 
53000000 2 66.601764 
54000000 2 67.858401 
55000000 2 69.115038 
56000000 2 70.371675 
57000000 2 71.628313 
58000000 2 72.88495 
59000000 2 74.141587 
60000000 2 75.398224 
61000000 2 76.654861 
62000000 2 77.911498 
63000000 2 79.168135 
64000000 2 80.424772 
65000000 2 81.681409 
66000000 2 82.938046 
67000000 2 84.194683 
68000000 2 85.45132 
69000000 2 86.707957 
70000000 2 87.964594 
71000000 2 89.221231 
72000000 2 90.477868 
73000000 2 91.734505 
74000000 2 92.991143 
75000000 2 94.24778 
76000000 2 95.504417 
77000000 2 96.761054 
78000000 2 98.017691 
79000000 2 99.274328 
80000000 2 100.53096 
81000000 2 101.7876 
82000000 2 103.04424 
83000000 2 104.30088 
84000000 2 105.55751 
85000000 2 106.81415 
86000000 2 108.07079 
87000000 2 109.32742 
88000000 2 110.58406 
89000000 2 111.8407 
90000000 2 113.09734 
91000000 2 114.35397 
92000000 2 115.61061 
93000000 2 116.86725 
94000000 2 118.12388 
95000000 2 119.38052 
96000000 2 120.63716 
97000000 2 121.89379 
98000000 2 123.15043 
99000000 2 124.40707 
1e+008 2 125.66371 
1.01e+008 2 126.92034 
1.02e+008 2 128.17698 
1.03e+008 2 129.43362 
1.04e+008 2 130.69025 
1.05e+008 2 131.94689 
1.06e+008 2 133.20353 
1.07e+008 2 134.46017 
1.08e+008 2 135.7168 
1.09e+008 2 136.97344 
1.1e+008 2 138.23008 
1.11e+008 2 139.48671 
1.12e+008 2 140.74335 
1.13e+008 2 141.99999 
1.14e+008 2 143.25663 
1.15e+008 2 144.51326 
1.16e+008 2 145.7699 
1.17e+008 2 147.02654 
1.18e+008 2 148.28317 
1.19e+008 2 149.53981 
1.2e+008 2 150.79645 
1.21e+008 2 152.05308 
1.22e+008 2 153.30972 
1.23e+008 2 154.56636 
1.24e+008 2 155.823 
1.25e+008 2 157.07963 
1.26e+008 2 158.33627 
1.27e+008 2 159.59291 
1.28e+008 2 160.84954 
1.29e+008 2 162.10618 
1.3e+008 2 163.36282 
1.31e+008 2 164.61946 
1.32e+008 2 165.87609 
1.33e+008 2 167.13273 
1.34e+008 2 168.38937 
1.35e+008 2 169.646 
1.36e+008 2 170.90264 
1.37e+008 2 172.15928 
1.38e+008 2 173.41591 
1.39e+008 2 174.67255 
1.4e+008 2 175.92919 
1.41e+008 2 177.18583 
1.42e+008 2 178.44246 
1.43e+008 2 179.6991 
1.44e+008 2 180.95574 
1.45e+008 2 182.21237 
1.46e+008 2 183.46901 
1.47e+008 2 184.72565 
1.48e+008 2 185.98229 
1.49e+008 2 187.23892 
1.5e+008 2 188.49556 
1.51e+008 2 189.7522 
1.52e+008 2 191.00883 
1.53e+008 2 192.26547 
1.54e+008 2 193.52211 
1.55e+008 2 194.77874 
1.56e+008 2 196.03538 
1.57e+008 2 197.29202 
1.58e+008 2 198.54866 
1.59e+008 2 199.80529 
1.6e+008 2 201.06193 
1.61e+008 2 202.31857 
1.62e+008 2 203.5752 
1.63e+008 2 204.83184 
1.64e+008 2 206.08848 
1.65e+008 2 207.34512 
1.66e+008 2 208.60175 
1.67e+008 2 209.85839 
1.68e+008 2 211.11503 
1.69e+008 2 212.37166 
1.7e+008 2 213.6283 
1.71e+008 2 214.88494 
1.72e+008 2 216.14157 
1.73e+008 2 217.39821 
1.74e+008 2 218.65485 
1.75e+008 2 219.91149 
1.76e+008 2 221.16812 
1.77e+008 2 222.42476 
1.78e+008 2 223.6814 
1.79e+008 2 224.93803 
1.8e+008 2 226.19467 
1.81e+008 2 227.45131 
1.82e+008 2 228.70795 
1.83e+008 2 229.96458 
1.84e+008 2 231.22122 
1.85e+008 2 232.47786 
1.86e+008 2 233.73449 
1.87e+008 2 234.99113 
1.88e+008 2 236.24777 
1.89e+008 2 237.5044 
1.9e+008 2 238.76104 
1.91e+008 2 240.01768 
1.92e+008 2 241.27432 
1.93e+008 2 242.53095 
1.94e+008 2 243.78759 
1.95e+008 2 245.04423 
1.96e+008 2 246.30086 
1.97e+008 2 247.5575 
1.98e+008 2 248.81414 
1.99e+008 2 250.07078 
2e+008 2 251.32741 
2.01e+008 2 252.58405 
2.02e+008 2 253.84069 
2.03e+008 2 255.09732 
2.04e+008 2 256.35396 
2.05e+008 2 257.6106 
2.06e+008 2 258.86723 
2.07e+008 2 260.12387 
2.08e+008 2 261.38051 
2.09e+008 2 262.63715 
2.1e+008 2 263.89378 
2.11e+008 2 265.15042 
2.12e+008 2 266.40706 
2.13e+008 2 267.66369 
2.14e+008 2 268.92033 
2.15e+008 2 270.17697 
2.16e+008 2 271.43361 
2.17e+008 2 272.69024 
2.18e+008 2 273.94688 
2.19e+008 2 275.20352 
2.2e+008 2 276.46015 
2.21e+008 2 277.71679 
2.22e+008 2 278.97343 
2.23e+008 2 280.23006 
2.24e+008 2 281.4867 
2.25e+008 2 282.74334 
2.26e+008 2 283.99998 
2.27e+008 2 285.25661 
2.28e+008 2 286.51325 
2.29e+008 2 287.76989 
2.3e+008 2 289.02652 
2.31e+008 2 290.28316 
2.32e+008 2 291.5398 
2.33e+008 2 292.79644 
2.34e+008 2 294.05307 
2.35e+008 2 295.30971 
2.36e+008 2 296.56635 
2.37e+008 2 297.82298 
2.38e+008 2 299.07962 
2.39e+008 2 300.33626 
2.4e+008 2 301.59289 
2.41e+008 2 302.84953 
2.42e+008 2 304.10617 
2.43e+008 2 305.36281 
2.44e+008 2 306.61944 
2.45e+008 2 307.87608 
2.46e+008 2 309.13272 
2.47e+008 2 310.38935 
2.48e+008 2 311.64599 
2.49e+008 2 312.90263 
2.5e+008 2 314.15927 
2.51e+008 2 315.4159 
2.52e+008 2 316.67254 
2.53e+008 2 317.92918 
2.54e+008 2 319.18581 
2.55e+008 2 320.44245 
2.56e+008 2 321.69909 
2.57e+008 2 322.95572 
2.58e+008 2 324.21236 
2.59e+008 2 325.469 
2.6e+008 2 326.72564 
2.61e+008 2 327.98227 
2.62e+008 2 329.23891 
2.63e+008 2 330.49555 
2.64e+008 2 331.75218 
2.65e+008 2 333.00882 
2.66e+008 2 334.26546 
2.67e+008 2 335.5221 
2.68e+008 2 336.77873 
2.69e+008 2 338.03537 
2.7e+008 2 339.29201 
2.71e+008 2 340.54864 
2.72e+008 2 341.80528 
2.73e+008 2 343.06192 
2.74e+008 2 344.31855 
2.75e+008 2 345.57519 
2.76e+008 2 346.83183 
2.77e+008 2 348.08847 
2.78e+008 2 349.3451 
2.79e+008 2 350.60174 
2.8e+008 2 351.85838 
2.81e+008 2 353.11501 
2.82e+008 2 354.37165 
2.83e+008 2 355.62829 
2.84e+008 2 356.88493 
2.85e+008 2 358.14156 
2.86e+008 2 359.3982 
2.87e+008 2 360.65484 
2.88e+008 2 361.91147 
2.89e+008 2 363.16811 
2.9e+008 2 364.42475 
2.91e+008 2 365.68138 
2.92e+008 2 366.93802 
2.93e+008 2 368.19466 
2.94e+008 2 369.4513 
2.95e+008 2 370.70793 
2.96e+008 2 371.96457 
2.97e+008 2 373.22121 
2.98e+008 2 374.47784 
2.99e+008 2 375.73448 
3e+008 2 376.99112 
3.01e+008 2 378.24776 
3.02e+008 2 379.50439 
3.03e+008 2 380.76103 
3.04e+008 2 382.01767 
3.05e+008 2 383.2743 
3.06e+008 2 384.53094 
3.07e+008 2 385.78758 
3.08e+008 2 387.04421 
3.09e+008 2 388.30085 
3.1e+008 2 389.55749 
3.11e+008 2 390.81413 
3.12e+008 2 392.07076 
3.13e+008 2 393.3274 
3.14e+008 2 394.58404 
3.15e+008 2 395.84067 
3.16e+008 2 397.09731 
3.17e+008 2 398.35395 
3.18e+008 2 399.61059 
3.19e+008 2 400.86722 
3.2e+008 2 402.12386 
3.21e+008 2 403.3805 
3.22e+008 2 404.63713 
3.23e+008 2 405.89377 
3.24e+008 2 407.15041 
3.25e+008 2 408.40704 
3.26e+008 2 409.66368 
3.27e+008 2 410.92032 
3.28e+008 2 412.17696 
3.29e+008 2 413.43359 
3.3e+008 2 414.69023 
3.31e+008 2 415.94687 
3.32e+008 2 417.2035 
3.33e+008 2 418.46014 
3.34e+008 2 419.71678 
3.35e+008 2 420.97342 
3.36e+008 2 422.23005 
3.37e+008 2 423.48669 
3.38e+008 2 424.74333 
3.39e+008 2 425.99996 
3.4e+008 2 427.2566 
3.41e+008 2 428.51324 
3.42e+008 2 429.76988 
3.43e+008 2 431.02651 
3.44e+008 2 432.28315 
3.45e+008 2 433.53979 
3.46e+008 2 434.79642 
3.47e+008 2 436.05306 
3.48e+008 2 437.3097 
3.49e+008 2 438.56633 
3.5e+008 2 439.82297 
3.51e+008 2 441.07961 
3.52e+008 2 442.33625 
3.53e+008 2 443.59288 
3.54e+008 2 444.84952 
3.55e+008 2 446.10616 
3.56e+008 2 447.36279 
3.57e+008 2 448.61943 
3.58e+008 2 449.87607 
3.59e+008 2 451.13271 
3.6e+008 2 452.38934 
3.61e+008 2 453.64598 
3.62e+008 2 454.90262 
3.63e+008 2 456.15925 
3.64e+008 2 457.41589 
3.65e+008 2 458.67253 
3.66e+008 2 459.92916 
3.67e+008 2 461.1858 
3.68e+008 2 462.44244 
3.69e+008 2 463.69908 
3.7e+008 2 464.95571 
3.71e+008 2 466.21235 
3.72e+008 2 467.46899 
3.73e+008 2 468.72562 
3.74e+008 2 469.98226 
3.75e+008 2 471.2389 
3.76e+008 2 472.49554 
3.77e+008 2 473.75217 
3.78e+008 2 475.00881 
3.79e+008 2 476.26545 
3.8e+008 2 477.52208 
3.81e+008 2 478.77872 
3.82e+008 2 480.03536 
3.83e+008 2 481.29199 
3.84e+008 2 482.54863 
3.85e+008 2 483.80527 
3.86e+008 2 485.06191 
3.87e+008 2 486.31854 
3.88e+008 2 487.57518 
3.89e+008 2 488.83182 
3.9e+008 2 490.08845 
3.91e+008 2 491.34509 
3.92e+008 2 492.60173 
3.93e+008 2 493.85837 
3.94e+008 2 495.115 
3.95e+008 2 496.37164 
3.96e+008 2 497.62828 
3.97e+008 2 498.88491 
3.98e+008 2 500.14155 
3.99e+008 2 501.39819 
4e+008 2 502.65482 
4.01e+008 2 503.91146 
4.02e+008 2 505.1681 
4.03e+008 2 506.42474 
4.04e+008 2 507.68137 
4.05e+008 2 508.93801 
4.06e+008 2 510.19465 
4.07e+008 2 511.45128 
4.08e+008 2 512.70792 
4.09e+008 2 513.96456 
4.1e+008 2 515.2212 
4.11e+008 2 516.47783 
4.12e+008 2 517.73447 
4.13e+008 2 518.99111 
4.14e+008 2 520.24774 
4.15e+008 2 521.50438 
4.16e+008 2 522.76102 
4.17e+008 2 524.01765 
4.18e+008 2 525.27429 
4.19e+008 2 526.53093 
4.2e+008 2 527.78757 
4.21e+008 2 529.0442 
4.22e+008 2 530.30084 
4.23e+008 2 531.55748 
4.24e+008 2 532.81411 
4.25e+008 2 534.07075 
4.26e+008 2 535.32739 
4.27e+008 2 536.58403 
4.28e+008 2 537.84066 
4.29e+008 2 539.0973 
4.3e+008 2 540.35394 
4.31e+008 2 541.61057 
4.32e+008 2 542.86721 
4.33e+008 2 544.12385 
4.34e+008 2 545.38048 
4.35e+008 2 546.63712 
4.36e+008 2 547.89376 
4.37e+008 2 549.1504 
4.38e+008 2 550.40703 
4.39e+008 2 551.66367 
4.4e+008 2 552.92031 
4.41e+008 2 554.17694 
4.42e+008 2 555.43358 
4.43e+008 2 556.69022 
4.44e+008 2 557.94686 
4.45e+008 2 559.20349 
4.46e+008 2 560.46013 
4.47e+008 2 561.71677 
4.48e+008 2 562.9734 
4.49e+008 2 564.23004 
4.5e+008 2 565.48668 
4.51e+008 2 566.74331 
4.52e+008 2 567.99995 
4.53e+008 2 569.25659 
4.54e+008 2 570.51323 
4.55e+008 2 571.76986 
4.56e+008 2 573.0265 
4.57e+008 2 574.28314 
4.58e+008 2 575.53977 
4.59e+008 2 576.79641 
4.6e+008 2 578.05305 
4.61e+008 2 579.30969 
4.62e+008 2 580.56632 
4.63e+008 2 581.82296 
4.64e+008 2 583.0796 
4.65e+008 2 584.33623 
4.66e+008 2 585.59287 
4.67e+008 2 586.84951 
4.68e+008 2 588.10614 
4.69e+008 2 589.36278 
4.7e+008 2 590.61942 
4.71e+008 2 591.87606 
4.72e+008 2 593.13269 
4.73e+008 2 594.38933 
4.74e+008 2 595.64597 
4.75e+008 2 596.9026 
4.76e+008 2 598.15924 
4.77e+008 2 599.41588 
4.78e+008 2 600.67252 
4.79e+008 2 601.92915 
4.8e+008 2 603.18579 
4.81e+008 2 604.44243 
4.82e+008 2 605.69906 
4.83e+008 2 606.9557 
4.84e+008 2 608.21234 
4.85e+008 2 609.46897 
4.86e+008 2 610.72561 
4.87e+008 2 611.98225 
4.88e+008 2 613.23889 
4.89e+008 2 614.49552 
4.9e+008 2 615.75216 
4.91e+008 2 617.0088 
4.92e+008 2 618.26543 
4.93e+008 2 619.52207 
4.94e+008 2 620.77871 
4.95e+008 2 622.03535 
4.96e+008 2 623.29198 
4.97e+008 2 624.54862 
4.98e+008 2 625.80526 
4.99e+008 2 627.06189 
5e+008 2 628.31853 
5.01e+008 2 629.57517 
5.02e+008 2 630.8318 
5.03e+008 2 632.08844 
5.04e+008 2 633.34508 
5.05e+008 2 634.60172 
5.06e+008 2 635.85835 
5.07e+008 2 637.11499 
5.08e+008 2 638.37163 
5.09e+008 2 639.62826 
5.1e+008 2 640.8849 
5.11e+008 2 642.14154 
5.12e+008 2 643.39818 
5.13e+008 2 644.65481 
5.14e+008 2 645.91145 
5.15e+008 2 647.16809 
5.16e+008 2 648.42472 
5.17e+008 2 649.68136 
5.18e+008 2 650.938 
5.19e+008 2 652.19463 
5.2e+008 2 653.45127 
5.21e+008 2 654.70791 
5.22e+008 2 655.96455 
5.23e+008 2 657.22118 
5.24e+008 2 658.47782 
5.25e+008 2 659.73446 
5.26e+008 2 660.99109 
5.27e+008 2 662.24773 
5.28e+008 2 663.50437 
5.29e+008 2 664.76101 
5.3e+008 2 666.01764 
5.31e+008 2 667.27428 
5.32e+008 2 668.53092 
5.33e+008 2 669.78755 
5.34e+008 2 671.04419 
5.35e+008 2 672.30083 
5.36e+008 2 673.55746 
5.37e+008 2 674.8141 
5.38e+008 2 676.07074 
5.39e+008 2 677.32738 
5.4e+008 2 678.58401 
5.41e+008 2 679.84065 
5.42e+008 2 681.09729 
5.43e+008 2 682.35392 
5.44e+008 2 683.61056 
5.45e+008 2 684.8672 
5.46e+008 2 686.12384 
5.47e+008 2 687.38047 
5.48e+008 2 688.63711 
5.49e+008 2 689.89375 
5.5e+008 2 691.15038 
5.51e+008 2 692.40702 
5.52e+008 2 693.66366 
5.53e+008 2 694.92029 
5.54e+008 2 696.17693 
5.55e+008 2 697.43357 
5.56e+008 2 698.69021 
5.57e+008 2 699.94684 
5.58e+008 2 701.20348 
5.59e+008 2 702.46012 
5.6e+008 2 703.71675 
5.61e+008 2 704.97339 
5.62e+008 2 706.23003 
5.63e+008 2 707.48667 
5.64e+008 2 708.7433 
5.65e+008 2 709.99994 
5.66e+008 2 711.25658 
5.67e+008 2 712.51321 
5.68e+008 2 713.76985 
5.69e+008 2 715.02649 
5.7e+008 2 716.28313 
5.71e+008 2 717.53976 
5.72e+008 2 718.7964 
5.73e+008 2 720.05304 
5.74e+008 2 721.30967 
5.75e+008 2 722.56631 
5.76e+008 2 723.82295 
5.77e+008 2 725.07958 
5.78e+008 2 726.33622 
5.79e+008 2 727.59286 
5.8e+008 2 728.8495 
5.81e+008 2 730.10613 
5.82e+008 2 731.36277 
5.83e+008 2 732.61941 
5.84e+008 2 733.87604 
5.85e+008 2 735.13268 
5.86e+008 2 736.38932 
5.87e+008 2 737.64596 
5.88e+008 2 738.90259 
5.89e+008 2 740.15923 
5.9e+008 2 741.41587 
5.91e+008 2 742.6725 
5.92e+008 2 743.92914 
5.93e+008 2 745.18578 
5.94e+008 2 746.44241 
5.95e+008 2 747.69905 
5.96e+008 2 748.95569 
5.97e+008 2 750.21233 
5.98e+008 2 751.46896 
5.99e+008 2 752.7256 
6e+008 2 753.98224 
6.01e+008 2 755.23887 
6.02e+008 2 756.49551 
6.03e+008 2 757.75215 
6.04e+008 2 759.00879 
6.05e+008 2 760.26542 
6.06e+008 2 761.52206 
6.07e+008 2 762.7787 
6.08e+008 2 764.03533 
6.09e+008 2 765.29197 
6.1e+008 2 766.54861 
6.11e+008 2 767.80524 
6.12e+008 2 769.06188 
6.13e+008 2 770.31852 
6.14e+008 2 771.57516 
6.15e+008 2 772.83179 
6.16e+008 2 774.08843 
6.17e+008 2 775.34507 
6.18e+008 2 776.6017 
6.19e+008 2 777.85834 
6.2e+008 2 779.11498 
6.21e+008 2 780.37162 
6.22e+008 2 781.62825 
6.23e+008 2 782.88489 
6.24e+008 2 784.14153 
6.25e+008 2 785.39816 
6.26e+008 2 786.6548 
6.27e+008 2 787.91144 
6.28e+008 2 789.16807 
6.29e+008 2 790.42471 
6.3e+008 2 791.68135 
6.31e+008 2 792.93799 
6.32e+008 2 794.19462 
6.33e+008 2 795.45126 
6.34e+008 2 796.7079 
6.35e+008 2 797.96453 
6.36e+008 2 799.22117 
6.37e+008 2 800.47781 
6.38e+008 2 801.73445 
6.39e+008 2 802.99108 
6.4e+008 2 804.24772 
6.41e+008 2 805.50436 
6.42e+008 2 806.76099 
6.43e+008 2 808.01763 
6.44e+008 2 809.27427 
6.45e+008 2 810.5309 
6.46e+008 2 811.78754 
6.47e+008 2 813.04418 
6.48e+008 2 814.30082 
6.49e+008 2 815.55745 
6.5e+008 2 816.81409 
6.51e+008 2 818.07073 
6.52e+008 2 819.32736 
6.53e+008 2 820.584 
6.54e+008 2 821.84064 
6.55e+008 2 823.09728 
6.56e+008 2 824.35391 
6.57e+008 2 825.61055 
6.58e+008 2 826.86719 
6.59e+008 2 828.12382 
6.6e+008 2 829.38046 
6.61e+008 2 830.6371 
6.62e+008 2 831.89373 
6.63e+008 2 833.15037 
6.64e+008 2 834.40701 
6.65e+008 2 835.66365 
6.66e+008 2 836.92028 
6.67e+008 2 838.17692 
6.68e+008 2 839.43356 
6.69e+008 2 840.69019 
6.7e+008 2 841.94683 
6.71e+008 2 843.20347 
6.72e+008 2 844.46011 
6.73e+008 2 845.71674 
6.74e+008 2 846.97338 
6.75e+008 2 848.23002 
6.76e+008 2 849.48665 
6.77e+008 2 850.74329 
6.78e+008 2 851.99993 
6.79e+008 2 853.25656 
6.8e+008 2 854.5132 
6.81e+008 2 855.76984 
6.82e+008 2 857.02648 
6.83e+008 2 858.28311 
6.84e+008 2 859.53975 
6.85e+008 2 860.79639 
6.86e+008 2 862.05302 
6.87e+008 2 863.30966 
6.88e+008 2 864.5663 
6.89e+008 2 865.82294 
6.9e+008 2 867.07957 
6.91e+008 2 868.33621 
6.92e+008 2 869.59285 
6.93e+008 2 870.84948 
6.94e+008 2 872.10612 
6.95e+008 2 873.36276 
6.96e+008 2 874.61939 
6.97e+008 2 875.87603 
6.98e+008 2 877.13267 
6.99e+008 2 878.38931 
7e+008 2 879.64594 
7.01e+008 2 880.90258 
7.02e+008 2 882.15922 
7.03e+008 2 883.41585 
7.04e+008 2 884.67249 
7.05e+008 2 885.92913 
7.06e+008 2 887.18577 
7.07e+008 2 888.4424 
7.08e+008 2 889.69904 
7.09e+008 2 890.95568 
7.1e+008 2 892.21231 
7.11e+008 2 893.46895 
7.12e+008 2 894.72559 
7.13e+008 2 895.98222 
7.14e+008 2 897.23886 
7.15e+008 2 898.4955 
7.16e+008 2 899.75214 
7.17e+008 2 901.00877 
7.18e+008 2 902.26541 
7.19e+008 2 903.52205 
7.2e+008 2 904.77868 
7.21e+008 2 906.03532 
7.22e+008 2 907.29196 
7.23e+008 2 908.5486 
7.24e+008 2 909.80523 
7.25e+008 2 911.06187 
7.26e+008 2 912.31851 
7.27e+008 2 913.57514 
7.28e+008 2 914.83178 
7.29e+008 2 916.08842 
7.3e+008 2 917.34505 
7.31e+008 2 918.60169 
7.32e+008 2 919.85833 
7.33e+008 2 921.11497 
7.34e+008 2 922.3716 
7.35e+008 2 923.62824 
7.36e+008 2 924.88488 
7.37e+008 2 926.14151 
7.38e+008 2 927.39815 
7.39e+008 2 928.65479 
7.4e+008 2 929.91143 
7.41e+008 2 931.16806 
7.42e+008 2 932.4247 
7.43e+008 2 933.68134 
7.44e+008 2 934.93797 
7.45e+008 2 936.19461 
7.46e+008 2 937.45125 
7.47e+008 2 938.70788 
7.48e+008 2 939.96452 
7.49e+008 2 941.22116 
7.5e+008 2 942.4778 
7.51e+008 2 943.73443 
7.52e+008 2 944.99107 
7.53e+008 2 946.24771 
7.54e+008 2 947.50434 
7.55e+008 2 948.76098 
7.56e+008 2 950.01762 
7.57e+008 2 951.27426 
7.58e+008 2 952.53089 
7.59e+008 2 953.78753 
7.6e+008 2 955.04417 
7.61e+008 2 956.3008 
7.62e+008 2 957.55744 
7.63e+008 2 958.81408 
7.64e+008 2 960.07071 
7.65e+008 2 961.32735 
7.66e+008 2 962.58399 
7.67e+008 2 963.84063 
7.68e+008 2 965.09726 
7.69e+008 2 966.3539 
7.7e+008 2 967.61054 
7.71e+008 2 968.86717 
7.72e+008 2 970.12381 
7.73e+008 2 971.38045 
7.74e+008 2 972.63709 
7.75e+008 2 973.89372 
7.76e+008 2 975.15036 
7.77e+008 2 976.407 
7.78e+008 2 977.66363 
7.79e+008 2 978.92027 
7.8e+008 2 980.17691 
7.81e+008 2 981.43354 
7.82e+008 2 982.69018 
7.83e+008 2 983.94682 
7.84e+008 2 985.20346 
7.85e+008 2 986.46009 
7.86e+008 2 987.71673 
7.87e+008 2 988.97337 
7.88e+008 2 990.23 
7.89e+008 2 991.48664 
7.9e+008 2 992.74328 
7.91e+008 2 993.99992 
7.92e+008 2 995.25655 
7.93e+008 2 996.51319 
7.94e+008 2 997.76983 
7.95e+008 2 999.02646 
7.96e+008 2 1000.2831 
7.97e+008 2 1001.5397 
7.98e+008 2 1002.7964 
7.99e+008 2 1004.053 
8e+008 2 1005.3096 
8.01e+008 2 1006.5663 
8.02e+008 2 1007.8229 
8.03e+008 2 1009.0796 
8.04e+008 2 1010.3362 
8.05e+008 2 1011.5928 
8.06e+008 2 1012.8495 
8.07e+008 2 1014.1061 
8.08e+008 2 1015.3627 
8.09e+008 2 1016.6194 
8.1e+008 2 1017.876 
8.11e+008 2 1019.1327 
8.12e+008 2 1020.3893 
8.13e+008 2 1021.6459 
8.14e+008 2 1022.9026 
8.15e+008 2 1024.1592 
8.16e+008 2 1025.4158 
8.17e+008 2 1026.6725 
8.18e+008 2 1027.9291 
8.19e+008 2 1029.1858 
8.2e+008 2 1030.4424 
8.21e+008 2 1031.699 
8.22e+008 2 1032.9557 
8.23e+008 2 1034.2123 
8.24e+008 2 1035.4689 
8.25e+008 2 1036.7256 
8.26e+008 2 1037.9822 
8.27e+008 2 1039.2388 
8.28e+008 2 1040.4955 
8.29e+008 2 1041.7521 
8.3e+008 2 1043.0088 
8.31e+008 2 1044.2654 
8.32e+008 2 1045.522 
8.33e+008 2 1046.7787 
8.34e+008 2 1048.0353 
8.35e+008 2 1049.2919 
8.36e+008 2 1050.5486 
8.37e+008 2 1051.8052 
8.38e+008 2 1053.0619 
8.39e+008 2 1054.3185 
