! AWR Design Environment (7670) Mon Apr 18 10:24:38 2016
! Document = 'RLC_S_Sven'
! nPorts: 1, nXvals: 432

# HZ Z RI R 50
!Freq ReZ11 ImZ11 
10 2 -318.30987 
10.23293 2 -311.06426 
10.471285 2 -303.98357 
10.715193 2 -297.06406 
10.964782 2 -290.30205 
11.220185 2 -283.69397 
11.481536 2 -277.23631 
11.748976 2 -270.92564 
12.022644 2 -264.75862 
12.302688 2 -258.73197 
12.589254 2 -252.84251 
12.882496 2 -247.08712 
13.182567 2 -241.46272 
13.489629 2 -235.96636 
13.803843 2 -230.59511 
14.125375 2 -225.34612 
14.454398 2 -220.21662 
14.791084 2 -215.20388 
15.135612 2 -210.30524 
15.488166 2 -205.5181 
15.848932 2 -200.83994 
16.218101 2 -196.26826 
16.595869 2 -191.80065 
16.982437 2 -187.43474 
17.378008 2 -183.1682 
17.782794 2 -178.99878 
18.197009 2 -174.92427 
18.620871 2 -170.94251 
19.054607 2 -167.05138 
19.498446 2 -163.24882 
19.952623 2 -159.53283 
20.417379 2 -155.90141 
20.892961 2 -152.35266 
21.379621 2 -148.88469 
21.877616 2 -145.49566 
22.387211 2 -142.18378 
22.908677 2 -138.94728 
23.442288 2 -135.78445 
23.988329 2 -132.69362 
24.547089 2 -129.67314 
25.118864 2 -126.72142 
25.703958 2 -123.83688 
26.30268 2 -121.01801 
26.915348 2 -118.2633 
27.542287 2 -115.5713 
28.183829 2 -112.94057 
28.840315 2 -110.36973 
29.512092 2 -107.85741 
30.199517 2 -105.40227 
30.902954 2 -103.00302 
31.622777 2 -100.65838 
32.359366 2 -98.367118 
33.113112 2 -96.128007 
33.884416 2 -93.939865 
34.673685 2 -91.80153 
35.481339 2 -89.71187 
36.307805 2 -87.669777 
37.153523 2 -85.674167 
38.01894 2 -83.723983 
38.904514 2 -81.81819 
39.810717 2 -79.955778 
40.738028 2 -78.13576 
41.686938 2 -76.357171 
42.657952 2 -74.619067 
43.651583 2 -72.920527 
44.668359 2 -71.260651 
45.708819 2 -69.638558 
46.773514 2 -68.053388 
47.863009 2 -66.504301 
48.977882 2 -64.990476 
50.118723 2 -63.511109 
51.286138 2 -62.065417 
52.480746 2 -60.652632 
53.70318 2 -59.272007 
54.954087 2 -57.922808 
56.234133 2 -56.604321 
57.543994 2 -55.315846 
58.884366 2 -54.0567 
60.255959 2 -52.826216 
61.6595 2 -51.623741 
63.095734 2 -50.448638 
64.565423 2 -49.300283 
66.069345 2 -48.178068 
67.608298 2 -47.081397 
69.183097 2 -46.00969 
70.794578 2 -44.962378 
72.443596 2 -43.938905 
74.131024 2 -42.938729 
75.857758 2 -41.96132 
77.624712 2 -41.006159 
79.432823 2 -40.072741 
81.283052 2 -39.160569 
83.176377 2 -38.269161 
85.113804 2 -37.398044 
87.096359 2 -36.546755 
89.125094 2 -35.714845 
91.201084 2 -34.90187 
93.32543 2 -34.107402 
95.499259 2 -33.331017 
97.723722 2 -32.572305 
100 2 -31.830863 
102.3293 2 -31.106298 
104.71285 2 -30.398227 
107.15193 2 -29.706272 
109.64782 2 -29.030069 
112.20185 2 -28.369257 
114.81536 2 -27.723488 
117.48976 2 -27.092418 
120.22644 2 -26.475712 
123.02688 2 -25.873044 
125.89254 2 -25.284095 
128.82496 2 -24.708551 
131.82567 2 -24.146108 
134.89629 2 -23.596468 
138.03843 2 -23.059339 
141.25375 2 -22.534437 
144.54398 2 -22.021482 
147.91084 2 -21.520204 
151.35612 2 -21.030335 
154.88166 2 -20.551618 
158.48932 2 -20.083797 
162.18101 2 -19.626625 
165.95869 2 -19.179859 
169.82437 2 -18.743262 
173.78008 2 -18.316604 
177.82794 2 -17.899657 
181.97009 2 -17.492201 
186.20871 2 -17.094019 
190.54607 2 -16.704901 
194.98446 2 -16.32464 
199.52623 2 -15.953034 
204.17379 2 -15.589887 
208.92961 2 -15.235006 
213.79621 2 -14.888203 
218.77616 2 -14.549294 
223.87211 2 -14.218099 
229.08677 2 -13.894443 
234.42288 2 -13.578153 
239.88329 2 -13.269063 
245.47089 2 -12.967009 
251.18864 2 -12.671829 
257.03958 2 -12.383369 
263.0268 2 -12.101474 
269.15348 2 -11.825995 
275.42287 2 -11.556787 
281.83829 2 -11.293707 
288.40315 2 -11.036614 
295.12092 2 -10.785374 
301.99517 2 -10.539851 
309.02954 2 -10.299918 
316.22777 2 -10.065445 
323.59366 2 -9.8363092 
331.13112 2 -9.6123888 
338.84416 2 -9.3935649 
346.73685 2 -9.1797217 
354.81339 2 -8.9707456 
363.07805 2 -8.766526 
371.53523 2 -8.5669545 
380.1894 2 -8.3719253 
389.04514 2 -8.181335 
398.10717 2 -7.9950826 
407.38028 2 -7.8130692 
416.86938 2 -7.6351985 
426.57952 2 -7.461376 
436.51583 2 -7.2915097 
446.68359 2 -7.1255094 
457.08819 2 -6.9632871 
467.73514 2 -6.8047569 
478.63009 2 -6.6498347 
489.77882 2 -6.4984383 
501.18723 2 -6.3504874 
512.86138 2 -6.2059036 
524.80746 2 -6.0646104 
537.0318 2 -5.9265326 
549.54087 2 -5.7915972 
562.34133 2 -5.6597325 
575.43994 2 -5.5308687 
588.84366 2 -5.4049375 
602.55959 2 -5.281872 
616.595 2 -5.161607 
630.95734 2 -5.0440788 
645.65423 2 -4.9292251 
660.69345 2 -4.8169848 
676.08298 2 -4.7072986 
691.83097 2 -4.6001083 
707.94578 2 -4.495357 
724.43596 2 -4.3929892 
741.31024 2 -4.2929507 
758.57758 2 -4.1951883 
776.24712 2 -4.0996502 
794.32823 2 -4.0062859 
812.83052 2 -3.9150457 
831.76377 2 -3.8258813 
851.13804 2 -3.7387455 
870.96359 2 -3.653592 
891.25094 2 -3.5703757 
912.01084 2 -3.4890524 
933.2543 2 -3.4095791 
954.99259 2 -3.3319136 
977.23722 2 -3.2560147 
1000 2 -3.1818422 
1023.293 2 -3.1093568 
1047.1285 2 -3.03852 
1071.5193 2 -2.9692942 
1096.4782 2 -2.9016428 
1122.0185 2 -2.8355299 
1148.1536 2 -2.7709204 
1174.8976 2 -2.7077801 
1202.2644 2 -2.6460755 
1230.2688 2 -2.5857739 
1258.9254 2 -2.5268433 
1288.2496 2 -2.4692525 
1318.2567 2 -2.4129708 
1348.9629 2 -2.3579686 
1380.3843 2 -2.3042166 
1412.5375 2 -2.2516864 
1445.4398 2 -2.20035 
1479.1084 2 -2.1501802 
1513.5612 2 -2.1011506 
1548.8166 2 -2.0532349 
1584.8932 2 -2.006408 
1621.8101 2 -1.9606448 
1659.5869 2 -1.9159212 
1698.2437 2 -1.8722135 
1737.8008 2 -1.8294984 
1778.2794 2 -1.7877534 
1819.7009 2 -1.7469562 
1862.0871 2 -1.7070853 
1905.4607 2 -1.6681196 
1949.8446 2 -1.6300382 
1995.2623 2 -1.5928212 
2041.7379 2 -1.5564487 
2089.2961 2 -1.5209014 
2137.9621 2 -1.4861606 
2187.7616 2 -1.4522077 
2238.7211 2 -1.4190248 
2290.8677 2 -1.3865943 
2344.2288 2 -1.3548989 
2398.8329 2 -1.323922 
2454.7089 2 -1.293647 
2511.8864 2 -1.264058 
2570.3958 2 -1.2351391 
2630.268 2 -1.2068751 
2691.5348 2 -1.1792511 
2754.2287 2 -1.1522523 
2818.3829 2 -1.1258644 
2884.0315 2 -1.1000735 
2951.2092 2 -1.0748658 
3019.9517 2 -1.0502281 
3090.2954 2 -1.0261472 
3162.2777 2 -1.0026104 
3235.9366 2 -0.97960519 
3311.3112 2 -0.95711937 
3388.4416 2 -0.93514103 
3467.3685 2 -0.91365852 
3548.1339 2 -0.89266043 
3630.7805 2 -0.87213565 
3715.3523 2 -0.85207329 
3801.894 2 -0.8324627 
3890.4514 2 -0.8132935 
3981.0717 2 -0.79455552 
4073.8028 2 -0.77623882 
4168.6938 2 -0.7583337 
4265.7952 2 -0.74083065 
4365.1583 2 -0.7237204 
4466.8359 2 -0.70699388 
4570.8819 2 -0.69064221 
4677.3514 2 -0.67465674 
4786.3009 2 -0.65902897 
4897.7882 2 -0.64375063 
5011.8723 2 -0.62881362 
5128.6138 2 -0.61421001 
5248.0746 2 -0.59993206 
5370.318 2 -0.5859722 
5495.4087 2 -0.57232304 
5623.4133 2 -0.55897733 
5754.3994 2 -0.54592799 
5888.4366 2 -0.53316812 
6025.5959 2 -0.52069093 
6165.95 2 -0.50848983 
6309.5734 2 -0.49655833 
6456.5423 2 -0.48489011 
6606.9345 2 -0.47347899 
6760.8298 2 -0.46231891 
6918.3097 2 -0.45140396 
7079.4578 2 -0.44072836 
7244.3596 2 -0.43028643 
7413.1024 2 -0.42007264 
7585.7758 2 -0.41008159 
7762.4712 2 -0.40030796 
7943.2823 2 -0.39074658 
8128.3052 2 -0.38139238 
8317.6377 2 -0.3722404 
8511.3804 2 -0.36328579 
8709.6359 2 -0.3545238 
8912.5094 2 -0.34594978 
9120.1084 2 -0.33755918 
9332.543 2 -0.32934757 
9549.9259 2 -0.32131058 
9772.3722 2 -0.31344395 
10000 2 -0.30574352 
10232.93 2 -0.29820519 
10471.285 2 -0.29082498 
10715.193 2 -0.28359896 
10964.782 2 -0.27652332 
11220.185 2 -0.26959428 
11481.536 2 -0.2628082 
11748.976 2 -0.25616145 
12022.644 2 -0.24965053 
12302.688 2 -0.24327198 
12589.254 2 -0.23702241 
12882.496 2 -0.23089851 
13182.567 2 -0.22489704 
13489.629 2 -0.21901481 
13803.843 2 -0.21324871 
14125.375 2 -0.20759567 
14454.398 2 -0.20205271 
14791.084 2 -0.19661687 
15135.612 2 -0.19128528 
15488.166 2 -0.18605512 
15848.932 2 -0.18092361 
16218.101 2 -0.17588802 
16595.869 2 -0.17094569 
16982.437 2 -0.166094 
17378.008 2 -0.16133037 
17782.794 2 -0.15665229 
18197.009 2 -0.15205726 
18620.871 2 -0.14754285 
19054.607 2 -0.14310668 
19498.446 2 -0.13874638 
19952.623 2 -0.13445965 
20417.379 2 -0.1302442 
20892.961 2 -0.12609782 
21379.621 2 -0.1220183 
21877.616 2 -0.11800347 
22387.211 2 -0.1140512 
22908.677 2 -0.11015941 
23442.288 2 -0.10632603 
23988.329 2 -0.10254902 
24547.089 2 -0.098826388 
25118.864 2 -0.095156152 
25703.958 2 -0.09153637 
26302.68 2 -0.087965121 
26915.348 2 -0.084440513 
27542.287 2 -0.080960676 
28183.829 2 -0.077523765 
28840.315 2 -0.074127959 
29512.092 2 -0.070771456 
30199.517 2 -0.067452477 
30902.954 2 -0.064169262 
31622.777 2 -0.060920071 
32359.366 2 -0.057703181 
33113.112 2 -0.054516885 
33884.416 2 -0.051359495 
34673.685 2 -0.048229336 
35481.339 2 -0.04512475 
36307.805 2 -0.042044089 
37153.523 2 -0.03898572 
38018.94 2 -0.035948022 
38904.514 2 -0.032929384 
39810.717 2 -0.029928206 
40738.028 2 -0.026942896 
41686.938 2 -0.023971872 
42657.952 2 -0.021013557 
43651.583 2 -0.018066385 
44668.359 2 -0.015128791 
45708.819 2 -0.012199219 
46773.514 2 -0.0092761156 
47863.009 2 -0.0063579301 
48977.882 2 -0.0034431156 
50118.723 2 -0.00053012679 
51286.138 2 0.002382581 
52480.746 2 0.005296552 
53703.18 2 0.0082133314 
54954.087 2 0.011134466 
56234.133 2 0.014061503 
57543.994 2 0.016995997 
58884.366 2 0.019939502 
60255.959 2 0.022893579 
61659.5 2 0.025859794 
63095.734 2 0.028839721 
64565.423 2 0.031834939 
66069.345 2 0.034847036 
67608.298 2 0.03787761 
69183.097 2 0.040928267 
70794.578 2 0.044000625 
72443.596 2 0.047096312 
74131.024 2 0.05021697 
75857.758 2 0.053364254 
77624.712 2 0.056539833 
79432.823 2 0.059745389 
81283.052 2 0.062982624 
83176.377 2 0.066253253 
85113.804 2 0.06955901 
87096.359 2 0.072901648 
89125.094 2 0.076282939 
91201.084 2 0.079704677 
93325.43 2 0.083168675 
95499.259 2 0.086676771 
97723.722 2 0.090230823 
100000 2 0.093832718 
102329.3 2 0.097484363 
104712.85 2 0.1011877 
107151.93 2 0.10494468 
109647.82 2 0.10875731 
112201.85 2 0.1126276 
114815.36 2 0.11655761 
117489.76 2 0.12054942 
120226.44 2 0.12460514 
123026.88 2 0.12872693 
125892.54 2 0.13291698 
128824.96 2 0.1371775 
131825.67 2 0.14151075 
134896.29 2 0.14591904 
138038.43 2 0.15040469 
141253.75 2 0.15497009 
144543.98 2 0.15961765 
147910.84 2 0.16434985 
151356.12 2 0.16916919 
154881.66 2 0.17407822 
158489.32 2 0.17907956 
162181.01 2 0.18417584 
165958.69 2 0.18936977 
169824.37 2 0.19466412 
173780.08 2 0.20006167 
177827.94 2 0.2055653 
181970.09 2 0.21117792 
186208.71 2 0.21690252 
190546.07 2 0.22274212 
194984.46 2 0.22869981 
199526.23 2 0.23477877 
200000 2 0.23541192 
