! Testspule mit Imp.Analyzer gemessen
! 29.9.08 / nik
! Start bei 1kHz wegen R-Verlauf
!
#	KHZ	S	MA	R	50
1.00000000000e+00	9.99679159144e-01	1.79987319946e+02
1.01449500000e+00	9.99677481217e-01	1.79987030029e+02
1.02920100000e+00	9.99667871326e-01	1.79987091064e+02
1.04411900000e+00	9.99679311683e-01	1.79986541748e+02
1.05925400000e+00	9.99675040601e-01	1.79986419678e+02
1.07460800000e+00	9.99676260908e-01	1.79986694336e+02
1.09018400000e+00	9.99677328678e-01	1.79986480713e+02
1.10598700000e+00	9.99678854066e-01	1.79985748291e+02
1.12201800000e+00	9.99672142377e-01	1.79986572266e+02
1.13828200000e+00	9.99670006849e-01	1.79985916138e+02
1.15478200000e+00	9.99679159144e-01	1.79985687256e+02
1.17152100000e+00	9.99669244162e-01	1.79985382080e+02
1.18850200000e+00	9.99672447453e-01	1.79984771729e+02
1.20573000000e+00	9.99671227150e-01	1.79984848022e+02
1.22320700000e+00	9.99671379688e-01	1.79984329224e+02
1.24093800000e+00	9.99684345481e-01	1.79984451294e+02
1.25892500000e+00	9.99682820085e-01	1.79983978271e+02
1.27717400000e+00	9.99676108370e-01	1.79984573364e+02
1.29568700000e+00	9.99674125371e-01	1.79984252930e+02
1.31446800000e+00	9.99673362681e-01	1.79983566284e+02
1.33352100000e+00	9.99680989613e-01	1.79982894897e+02
1.35285100000e+00	9.99666193418e-01	1.79983016968e+02
1.37246100000e+00	9.99678854066e-01	1.79982879639e+02
1.39235500000e+00	9.99681447230e-01	1.79982376099e+02
1.41253800000e+00	9.99685108180e-01	1.79982254028e+02
1.43301300000e+00	9.99674125371e-01	1.79981719971e+02
1.45378400000e+00	9.99677176139e-01	1.79982299805e+02
1.47485700000e+00	9.99676718524e-01	1.79981842041e+02
1.49623600000e+00	9.99685108180e-01	1.79981048584e+02
1.51792400000e+00	9.99678243910e-01	1.79981033325e+02
1.53992700000e+00	9.99682667545e-01	1.79979843140e+02
1.56224800000e+00	9.99679769300e-01	1.79980453491e+02
1.58489300000e+00	9.99669244162e-01	1.79980194092e+02
1.60786700000e+00	9.99671684764e-01	1.79980056763e+02
1.63117300000e+00	9.99674430448e-01	1.79979766846e+02
1.65481700000e+00	9.99673667757e-01	1.79979110718e+02
1.67880400000e+00	9.99672599991e-01	1.79979064941e+02
1.70313900000e+00	9.99677023601e-01	1.79978851318e+02
1.72782600000e+00	9.99671227150e-01	1.79978347778e+02
1.75287100000e+00	9.99680684534e-01	1.79977951050e+02
1.77827900000e+00	9.99669854312e-01	1.79977676392e+02
1.80405600000e+00	9.99675650754e-01	1.79977676392e+02
1.83020600000e+00	9.99676108370e-01	1.79976745605e+02
1.85673500000e+00	9.99676260908e-01	1.79976791382e+02
1.88364900000e+00	9.99674277910e-01	1.79976577759e+02
1.91095300000e+00	9.99676413447e-01	1.79976089478e+02
1.93865300000e+00	9.99685718340e-01	1.79975494385e+02
1.96675400000e+00	9.99678701527e-01	1.79975601196e+02
1.99526200000e+00	9.99676260908e-01	1.79974838257e+02
2.02418400000e+00	9.99676260908e-01	1.79974624634e+02
2.05352500000e+00	9.99675955831e-01	1.79973678589e+02
2.08329100000e+00	9.99679159144e-01	1.79973861694e+02
2.11348900000e+00	9.99671989839e-01	1.79973434448e+02
2.14412500000e+00	9.99674888063e-01	1.79973281860e+02
2.17520400000e+00	9.99677633755e-01	1.79973190308e+02
2.20673400000e+00	9.99673057605e-01	1.79972396851e+02
2.23872100000e+00	9.99681599770e-01	1.79971984863e+02
2.27117200000e+00	9.99668481475e-01	1.79972061157e+02
2.30409300000e+00	9.99679464222e-01	1.79971481323e+02
2.33749100000e+00	9.99680989613e-01	1.79971160889e+02
2.37137400000e+00	9.99676260908e-01	1.79970474243e+02
2.40574700000e+00	9.99676871062e-01	1.79969863892e+02
2.44061900000e+00	9.99672142377e-01	1.79969253540e+02
2.47599600000e+00	9.99671532226e-01	1.79969253540e+02
2.51188600000e+00	9.99676108370e-01	1.79968475342e+02
2.54829700000e+00	9.99679006629e-01	1.79968261719e+02
2.58523500000e+00	9.99674583011e-01	1.79967742920e+02
2.62270800000e+00	9.99669854337e-01	1.79966995239e+02
2.66072500000e+00	9.99671227175e-01	1.79966903687e+02
2.69929300000e+00	9.99679311707e-01	1.79966232300e+02
2.73842000000e+00	9.99672752554e-01	1.79966140747e+02
2.77811400000e+00	9.99678243935e-01	1.79965606689e+02
2.81838300000e+00	9.99668176426e-01	1.79965316772e+02
2.85923600000e+00	9.99674430473e-01	1.79964157104e+02
2.90068100000e+00	9.99678854090e-01	1.79963531494e+02
2.94272700000e+00	9.99668176426e-01	1.79963180542e+02
2.98538300000e+00	9.99673667782e-01	1.79962600708e+02
3.02865600000e+00	9.99673210168e-01	1.79962188721e+02
3.07255700000e+00	9.99676108394e-01	1.79961517334e+02
3.11709500000e+00	9.99677481241e-01	1.79961074829e+02
3.16227800000e+00	9.99675955856e-01	1.79960693359e+02
3.20811600000e+00	9.99674430473e-01	1.79959426880e+02
3.25461800000e+00	9.99675803317e-01	1.79959213257e+02
3.30179400000e+00	9.99672752554e-01	1.79958740234e+02
3.34965400000e+00	9.99668939112e-01	1.79958206177e+02
3.39820800000e+00	9.99673515244e-01	1.79957672119e+02
3.44746600000e+00	9.99672752554e-01	1.79956970215e+02
3.49743800000e+00	9.99675193164e-01	1.79956268311e+02
3.54813400000e+00	9.99676260933e-01	1.79955017090e+02
3.59956500000e+00	9.99673972858e-01	1.79955276489e+02
3.65174100000e+00	9.99667718814e-01	1.79954498291e+02
3.70467400000e+00	9.99673057630e-01	1.79953857422e+02
3.75837400000e+00	9.99683125188e-01	1.79952667236e+02
3.81285200000e+00	9.99675040626e-01	1.79951919556e+02
3.86812100000e+00	9.99672294940e-01	1.79951278687e+02
3.92419000000e+00	9.99671837327e-01	1.79951156616e+02
3.98107200000e+00	9.99676260933e-01	1.79949874878e+02
4.03877800000e+00	9.99670311950e-01	1.79949264526e+02
4.09732100000e+00	9.99666345980e-01	1.79948928833e+02
4.15671300000e+00	9.99669244187e-01	1.79948104858e+02
4.21696500000e+00	9.99675650779e-01	1.79947387695e+02
4.27809100000e+00	9.99671227175e-01	1.79946716309e+02
4.34010300000e+00	9.99668481500e-01	1.79945800781e+02
4.40301300000e+00	9.99679311732e-01	1.79944808960e+02
4.46683600000e+00	9.99667871377e-01	1.79944198608e+02
4.53158400000e+00	9.99673210193e-01	1.79943252563e+02
4.59727000000e+00	9.99676718573e-01	1.79942871094e+02
4.66390800000e+00	9.99669091675e-01	1.79942077637e+02
4.73151300000e+00	9.99672600041e-01	1.79941253662e+02
4.80009700000e+00	9.99673820345e-01	1.79939895630e+02
4.86967500000e+00	9.99667261228e-01	1.79939270020e+02
4.94026200000e+00	9.99670006900e-01	1.79938415527e+02
5.01187200000e+00	9.99666498543e-01	1.79937042236e+02
5.08452000000e+00	9.99670006900e-01	1.79936660767e+02
5.15822200000e+00	9.99666040932e-01	1.79935852051e+02
5.23299100000e+00	9.99666040932e-01	1.79934692383e+02
5.30884400000e+00	9.99671684814e-01	1.79933731079e+02
5.38579700000e+00	9.99671379738e-01	1.79932708740e+02
5.46386500000e+00	9.99675498265e-01	1.79932067871e+02
5.54306500000e+00	9.99668023914e-01	1.79930877686e+02
5.62341300000e+00	9.99671684814e-01	1.79929824829e+02
5.70492600000e+00	9.99677023675e-01	1.79928543091e+02
5.78762000000e+00	9.99668634088e-01	1.79927978516e+02
5.87151300000e+00	9.99672905142e-01	1.79926666260e+02
5.95662100000e+00	9.99671379763e-01	1.79925796509e+02
6.04296400000e+00	9.99671379763e-01	1.79924972534e+02
6.13055800000e+00	9.99675040675e-01	1.79923095703e+02
6.21942200000e+00	9.99668023939e-01	1.79922363281e+02
6.30957300000e+00	9.99671227226e-01	1.79921203613e+02
6.40103200000e+00	9.99673972908e-01	1.79919860840e+02
6.49381600000e+00	9.99669244238e-01	1.79919036865e+02
6.58794600000e+00	9.99664210516e-01	1.79918106079e+02
6.68343900000e+00	9.99672905142e-01	1.79916778564e+02
6.78031700000e+00	9.99663142786e-01	1.79915359497e+02
6.87859900000e+00	9.99669244263e-01	1.79914016724e+02
6.97830600000e+00	9.99659329382e-01	1.79912933350e+02
7.07945800000e+00	9.99664210542e-01	1.79911575317e+02
7.18207600000e+00	9.99659939526e-01	1.79910247803e+02
7.28618200000e+00	9.99662837713e-01	1.79909164429e+02
7.39179600000e+00	9.99658414168e-01	1.79907852173e+02
7.49894200000e+00	9.99660854742e-01	1.79906173706e+02
7.60764100000e+00	9.99659787016e-01	1.79904983521e+02
7.71791500000e+00	9.99656431231e-01	1.79903610229e+02
7.82978800000e+00	9.99662685203e-01	1.79902313232e+02
7.94328200000e+00	9.99663905494e-01	1.79901000977e+02
8.05842200000e+00	9.99661769985e-01	1.79899520874e+02
8.17523000000e+00	9.99669244288e-01	1.79897689819e+02
8.29373200000e+00	9.99656126161e-01	1.79896514893e+02
8.41395100000e+00	9.99663600447e-01	1.79894638062e+02
8.53591300000e+00	9.99658261684e-01	1.79893142700e+02
8.65964300000e+00	9.99660244650e-01	1.79891769409e+02
8.78516700000e+00	9.99652922949e-01	1.79890472412e+02
8.91250900000e+00	9.99658871827e-01	1.79888809204e+02
9.04169800000e+00	9.99649719722e-01	1.79887145996e+02
9.17275900000e+00	9.99658566781e-01	1.79885040283e+02
9.30572000000e+00	9.99653075511e-01	1.79884307861e+02
9.44060900000e+00	9.99656126213e-01	1.79881973267e+02
9.57745200000e+00	9.99656278748e-01	1.79880355835e+02
9.71628000000e+00	9.99654448326e-01	1.79878646851e+02
9.85711900000e+00	9.99651855259e-01	1.79877166748e+02
1.00000000000e+01	9.99644533621e-01	1.79875427246e+02
1.01449520000e+01	9.99654448352e-01	1.79873626709e+02
1.02920050000e+01	9.99650482448e-01	1.79872131348e+02
1.04411900000e+01	9.99644381088e-01	1.79869812012e+02
1.05925370000e+01	9.99652617959e-01	1.79867874146e+02
1.07460780000e+01	9.99643923514e-01	1.79866226196e+02
1.09018450000e+01	9.99648957131e-01	1.79864364624e+02
1.10598690000e+01	9.99643008314e-01	1.79862213135e+02
1.12201850000e+01	9.99644533675e-01	1.79860305786e+02
1.13828230000e+01	9.99639042483e-01	1.79858581543e+02
1.15478200000e+01	9.99643008341e-01	1.79856048584e+02
1.17152080000e+01	9.99649719856e-01	1.79854370117e+02
1.18850220000e+01	9.99638127315e-01	1.79852264404e+02
1.20572980000e+01	9.99642550769e-01	1.79850097656e+02
1.22320710000e+01	9.99634161504e-01	1.79847686768e+02
1.24093780000e+01	9.99640415333e-01	1.79845581055e+02
1.25892540000e+01	9.99640872932e-01	1.79843673706e+02
1.27717380000e+01	9.99638279903e-01	1.79841430664e+02
1.29568670000e+01	9.99633551405e-01	1.79839004517e+02
1.31446790000e+01	9.99638432435e-01	1.79836791992e+02
1.33352140000e+01	9.99639805257e-01	1.79834274292e+02
1.35285110000e+01	9.99631415990e-01	1.79832015991e+02
1.37246100000e+01	9.99641330613e-01	1.79829254150e+02
1.39235510000e+01	9.99634466652e-01	1.79827163696e+02
1.41253750000e+01	9.99634161588e-01	1.79824630737e+02
1.43301260000e+01	9.99630653389e-01	1.79822189331e+02
1.45378440000e+01	9.99632331235e-01	1.79819366455e+02
1.47485730000e+01	9.99635839496e-01	1.79816864014e+02
1.49623570000e+01	9.99622111698e-01	1.79814071655e+02
1.51792390000e+01	9.99617078249e-01	1.79811477661e+02
1.53992650000e+01	9.99627755354e-01	1.79808807373e+02
1.56224810000e+01	9.99627145259e-01	1.79806289673e+02
1.58489320000e+01	9.99625467422e-01	1.79803298950e+02
1.60786650000e+01	9.99624857329e-01	1.79800430298e+02
1.63117290000e+01	9.99618908660e-01	1.79797637939e+02
1.65481710000e+01	9.99618298571e-01	1.79794815063e+02
1.67880400000e+01	9.99620281484e-01	1.79791656494e+02
1.70313860000e+01	9.99614790430e-01	1.79788879395e+02
1.72782600000e+01	9.99616010691e-01	1.79785736084e+02
1.75287120000e+01	9.99614637960e-01	1.79782608032e+02
1.77827940000e+01	9.99610672219e-01	1.79779769897e+02
1.80405590000e+01	9.99607164106e-01	1.79776062012e+02
1.83020610000e+01	9.99608384358e-01	1.79773208618e+02
1.85673530000e+01	9.99609299526e-01	1.79769897461e+02
1.88364910000e+01	9.99604571200e-01	1.79766632080e+02
1.91095300000e+01	9.99606554086e-01	1.79763107300e+02
1.93865260000e+01	9.99605028842e-01	1.79760284424e+02
1.96675380000e+01	9.99601673277e-01	1.79756652832e+02
1.99526230000e+01	9.99599385378e-01	1.79753128052e+02
2.02418410000e+01	9.99596944989e-01	1.79749679565e+02
2.05352500000e+01	9.99595572287e-01	1.79745864868e+02
2.08329130000e+01	9.99595267266e-01	1.79742126465e+02
2.11348900000e+01	9.99587793564e-01	1.79738647461e+02
2.14412450000e+01	9.99595267328e-01	1.79735107422e+02
2.17520400000e+01	9.99590691598e-01	1.79731063843e+02
2.20673410000e+01	9.99585048219e-01	1.79727050781e+02
2.23872110000e+01	9.99587488640e-01	1.79723220825e+02
2.27117190000e+01	9.99583675567e-01	1.79719528198e+02
2.30409300000e+01	9.99576507000e-01	1.79715499878e+02
2.33749130000e+01	9.99579252479e-01	1.79711532593e+02
2.37137370000e+01	9.99573456646e-01	1.79707687378e+02
2.40574730000e+01	9.99576964698e-01	1.79703277588e+02
2.44061910000e+01	9.99571321402e-01	1.79698837280e+02
2.47599630000e+01	9.99571702756e-01	1.79694793701e+02
2.51188640000e+01	9.99561560144e-01	1.79690673828e+02
2.54829670000e+01	9.99567050928e-01	1.79685714722e+02
2.58523480000e+01	9.99562627888e-01	1.79681259155e+02
2.62270840000e+01	9.99567813634e-01	1.79676483154e+02
2.66072510000e+01	9.99565068319e-01	1.79672073364e+02
2.69929280000e+01	9.99558662496e-01	1.79667602539e+02
2.73841960000e+01	9.99557594924e-01	1.79662750244e+02
2.77811360000e+01	9.99545393455e-01	1.79658264160e+02
2.81838290000e+01	9.99549816551e-01	1.79652923584e+02
2.85923600000e+01	9.99546918773e-01	1.79648422241e+02
2.90068120000e+01	9.99546918842e-01	1.79643218994e+02
2.94272720000e+01	9.99538682938e-01	1.79638427734e+02
2.98538260000e+01	9.99531514748e-01	1.79632980347e+02
3.02865640000e+01	9.99533192493e-01	1.79627670288e+02
3.07255740000e+01	9.99537615533e-01	1.79622589111e+02
3.11709470000e+01	9.99534870311e-01	1.79617019653e+02
3.16227770000e+01	9.99528464728e-01	1.79611618042e+02
3.20811550000e+01	9.99522669245e-01	1.79606033325e+02
3.25461780000e+01	9.99524652039e-01	1.79600311279e+02
3.30179420000e+01	9.99522059370e-01	1.79594985962e+02
3.34965440000e+01	9.99515348850e-01	1.79589050293e+02
3.39820830000e+01	9.99511688657e-01	1.79583175659e+02
3.44746610000e+01	9.99506960860e-01	1.79577178955e+02
3.49743780000e+01	9.99513061455e-01	1.79571273804e+02
3.54813390000e+01	9.99509401236e-01	1.79565200806e+02
3.59956480000e+01	9.99501775782e-01	1.79559219360e+02
3.65174130000e+01	9.99498115645e-01	1.79552566528e+02
3.70467400000e+01	9.99496285641e-01	1.79546325684e+02
3.75837400000e+01	9.99492778036e-01	1.79539901733e+02
3.81285250000e+01	9.99492473134e-01	1.79533264160e+02
3.86812050000e+01	9.99491863214e-01	1.79526641846e+02
3.92418980000e+01	9.99484237908e-01	1.79519714355e+02
3.98107170000e+01	9.99472800004e-01	1.79513259888e+02
4.03877820000e+01	9.99479357946e-01	1.79506164551e+02
4.09732110000e+01	9.99475697904e-01	1.79499313354e+02
4.15671260000e+01	9.99472495434e-01	1.79492019653e+02
4.21696500000e+01	9.99468377905e-01	1.79485015869e+02
4.27809080000e+01	9.99467005521e-01	1.79477996826e+02
4.34010260000e+01	9.99463193068e-01	1.79469970703e+02
4.40301330000e+01	9.99457550588e-01	1.79462951660e+02
4.46683590000e+01	9.99455568211e-01	1.79454956055e+02
4.53158360000e+01	9.99447485790e-01	1.79447082520e+02
4.59726990000e+01	9.99445503437e-01	1.79439208984e+02
4.66390830000e+01	9.99449316149e-01	1.79431427002e+02
4.73151260000e+01	9.99439098781e-01	1.79423477173e+02
4.80009680000e+01	9.99437040221e-01	1.79415573120e+02
4.86967530000e+01	9.99433456715e-01	1.79406799316e+02
4.94026220000e+01	9.99431474441e-01	1.79398391724e+02
5.01187230000e+01	9.99427738418e-01	1.79390304565e+02
5.08452050000e+01	9.99416225098e-01	1.79381179810e+02
5.15822170000e+01	9.99419580295e-01	1.79372299194e+02
5.23299110000e+01	9.99418818031e-01	1.79363311768e+02
5.30884440000e+01	9.99408448569e-01	1.79354415894e+02
5.38579720000e+01	9.99410431278e-01	1.79345077515e+02
5.46386550000e+01	9.99405399213e-01	1.79336151123e+02
5.54306540000e+01	9.99395868645e-01	1.79326431274e+02
5.62341330000e+01	9.99393657798e-01	1.79316909790e+02
5.70492580000e+01	9.99396250453e-01	1.79307403564e+02
5.78761990000e+01	9.99393658445e-01	1.79297103882e+02
5.87151260000e+01	9.99389236452e-01	1.79287582397e+02
5.95662140000e+01	9.99379019935e-01	1.79276901245e+02
6.04296390000e+01	9.99379172756e-01	1.79266815186e+02
6.13055790000e+01	9.99377648236e-01	1.79256500244e+02
6.21942160000e+01	9.99371091583e-01	1.79246017456e+02
6.30957340000e+01	9.99365602394e-01	1.79235153198e+02
6.40103200000e+01	9.99355386163e-01	1.79224594116e+02
6.49381630000e+01	9.99351726950e-01	1.79213409424e+02
6.58794550000e+01	9.99352184851e-01	1.79202117920e+02
6.68343920000e+01	9.99349974237e-01	1.79191177368e+02
6.78031700000e+01	9.99338462171e-01	1.79179153442e+02
6.87859910000e+01	9.99331753449e-01	1.79167785645e+02
6.97830580000e+01	9.99338768146e-01	1.79155426025e+02
7.07945780000e+01	9.99325197777e-01	1.79143829346e+02
7.18207610000e+01	9.99326418137e-01	1.79131927490e+02
7.28618170000e+01	9.99313000497e-01	1.79119018555e+02
7.39179650000e+01	9.99315440732e-01	1.79106781006e+02
7.49894210000e+01	9.99309113486e-01	1.79094100952e+02
7.60764080000e+01	9.99307208124e-01	1.79081268311e+02
7.71791520000e+01	9.99296611679e-01	1.79068115234e+02
7.82978790000e+01	9.99295773735e-01	1.79054840088e+02
7.94328230000e+01	9.99282509186e-01	1.79041244507e+02
8.05842190000e+01	9.99287693991e-01	1.79027709961e+02
8.17523040000e+01	9.99280299783e-01	1.79013641357e+02
8.29373200000e+01	9.99282892584e-01	1.78999771118e+02
8.41395140000e+01	9.99273745041e-01	1.78985671997e+02
8.53591340000e+01	9.99273135988e-01	1.78970825195e+02
8.65964320000e+01	9.99266504339e-01	1.78956787109e+02
8.78516660000e+01	9.99256442298e-01	1.78941467285e+02
8.91250940000e+01	9.99255452194e-01	1.78926361084e+02
9.04169810000e+01	9.99254995700e-01	1.78911422729e+02
9.17275940000e+01	9.99247525804e-01	1.78895782471e+02
9.30572040000e+01	9.99233652486e-01	1.78880340576e+02
9.44060880000e+01	9.99237236465e-01	1.78864044189e+02
9.57745240000e+01	9.99228013523e-01	1.78847839355e+02
9.71627950000e+01	9.99220086639e-01	1.78831359863e+02
9.85711900000e+01	9.99214980377e-01	1.78814819336e+02
1.00000000000e+02	9.99219555377e-01	1.78797927856e+02
1.01449521000e+02	9.99204386922e-01	1.78780990601e+02
1.02920053000e+02	9.99198594883e-01	1.78763351440e+02
1.04411900000e+02	9.99192650442e-01	1.78745529175e+02
1.05925373000e+02	9.99190898593e-01	1.78727737427e+02
1.07460783000e+02	9.99191357376e-01	1.78709625244e+02
1.09018449000e+02	9.99179696118e-01	1.78691299438e+02
1.10598694000e+02	9.99176648636e-01	1.78672790527e+02
1.12201845000e+02	9.99172381565e-01	1.78653610229e+02
1.13828235000e+02	9.99161711706e-01	1.78634628296e+02
1.15478198000e+02	9.99152718990e-01	1.78615051270e+02
1.17152079000e+02	9.99152873181e-01	1.78595336914e+02
1.18850223000e+02	9.99147234536e-01	1.78575164795e+02
1.20572981000e+02	9.99137022614e-01	1.78554962158e+02
1.22320712000e+02	9.99129249920e-01	1.78534820557e+02
1.24093776000e+02	9.99129251979e-01	1.78513748169e+02
1.25892541000e+02	9.99119192991e-01	1.78492141724e+02
1.27717380000e+02	9.99116756172e-01	1.78470657349e+02
1.29568670000e+02	9.99114166931e-01	1.78448883057e+02
1.31446795000e+02	9.99104260850e-01	1.78426513672e+02
1.33352143000e+02	9.99092983075e-01	1.78404159546e+02
1.35285110000e+02	9.99088260112e-01	1.78381622314e+02
1.37246096000e+02	9.99085823826e-01	1.78358322144e+02
1.39235507000e+02	9.99080338926e-01	1.78335052490e+02
1.41253754000e+02	9.99075616380e-01	1.78311370850e+02
1.43301257000e+02	9.99065711379e-01	1.78286956787e+02
1.45378439000e+02	9.99061598828e-01	1.78262588501e+02
1.47485729000e+02	9.99050932091e-01	1.78237945557e+02
1.49623566000e+02	9.99044000090e-01	1.78212432861e+02
1.51792390000e+02	9.99039659362e-01	1.78187072754e+02
1.53992653000e+02	9.99033337357e-01	1.78161010742e+02
1.56224808000e+02	9.99033874402e-01	1.78134872437e+02
1.58489319000e+02	9.99011244049e-01	1.78108062744e+02
1.60786655000e+02	9.99021917049e-01	1.78081222534e+02
1.63117291000e+02	9.99002564268e-01	1.78053787231e+02
1.65481710000e+02	9.98994033354e-01	1.78025482178e+02
1.67880402000e+02	9.98999829213e-01	1.77997894287e+02
1.70313863000e+02	9.98980172762e-01	1.77969207764e+02
1.72782598000e+02	9.98977738830e-01	1.77940200806e+02
1.75287118000e+02	9.98969666145e-01	1.77910339355e+02
1.77827941000e+02	9.98958697941e-01	1.77880584717e+02
1.80405594000e+02	9.98955426419e-01	1.77850418091e+02
1.83020611000e+02	9.98955126873e-01	1.77819915771e+02
1.85673532000e+02	9.98943321391e-01	1.77788543701e+02
1.88364909000e+02	9.98937764577e-01	1.77756835938e+02
1.91095297000e+02	9.98926188475e-01	1.77724685669e+02
1.93865264000e+02	9.98918727296e-01	1.77692138672e+02
1.96675381000e+02	9.98911723592e-01	1.77659378052e+02
