! AWR Design Environment (7670) Wed Feb 10 08:19:31 2016
! Document = 'bsp1'
! nPorts: 1, nXvals: 101

# HZ Z RI R 1
!Freq ReZ11 ImZ11 
0 100 0 
1000000 100 6.2831853 
2000000 100 12.566371 
3000000 100 18.849556 
4000000 100 25.132741 
5000000 100 31.415927 
6000000 100 37.699112 
7000000 100 43.982297 
8000000 100 50.265482 
9000000 100 56.548668 
10000000 100 62.831853 
11000000 100 69.115038 
12000000 100 75.398224 
13000000 100 81.681409 
14000000 100 87.964594 
15000000 100 94.24778 
16000000 100 100.53096 
17000000 100 106.81415 
18000000 100 113.09734 
19000000 100 119.38052 
20000000 100 125.66371 
21000000 100 131.94689 
22000000 100 138.23008 
23000000 100 144.51326 
24000000 100 150.79645 
25000000 100 157.07963 
26000000 100 163.36282 
27000000 100 169.646 
28000000 100 175.92919 
29000000 100 182.21237 
30000000 100 188.49556 
31000000 100 194.77874 
32000000 100 201.06193 
33000000 100 207.34512 
34000000 100 213.6283 
35000000 100 219.91149 
36000000 100 226.19467 
37000000 100 232.47786 
38000000 100 238.76104 
39000000 100 245.04423 
40000000 100 251.32741 
41000000 100 257.6106 
42000000 100 263.89378 
43000000 100 270.17697 
44000000 100 276.46015 
45000000 100 282.74334 
46000000 100 289.02652 
47000000 100 295.30971 
48000000 100 301.59289 
49000000 100 307.87608 
50000000 100 314.15927 
51000000 100 320.44245 
52000000 100 326.72564 
53000000 100 333.00882 
54000000 100 339.29201 
55000000 100 345.57519 
56000000 100 351.85838 
57000000 100 358.14156 
58000000 100 364.42475 
59000000 100 370.70793 
60000000 100 376.99112 
61000000 100 383.2743 
62000000 100 389.55749 
63000000 100 395.84067 
64000000 100 402.12386 
65000000 100 408.40704 
66000000 100 414.69023 
67000000 100 420.97342 
68000000 100 427.2566 
69000000 100 433.53979 
70000000 100 439.82297 
71000000 100 446.10616 
72000000 100 452.38934 
73000000 100 458.67253 
74000000 100 464.95571 
75000000 100 471.2389 
76000000 100 477.52208 
77000000 100 483.80527 
78000000 100 490.08845 
79000000 100 496.37164 
80000000 100 502.65482 
81000000 100 508.93801 
82000000 100 515.2212 
83000000 100 521.50438 
84000000 100 527.78757 
85000000 100 534.07075 
86000000 100 540.35394 
87000000 100 546.63712 
88000000 100 552.92031 
89000000 100 559.20349 
90000000 100 565.48668 
91000000 100 571.76986 
92000000 100 578.05305 
93000000 100 584.33623 
94000000 100 590.61942 
95000000 100 596.9026 
96000000 100 603.18579 
97000000 100 609.46897 
98000000 100 615.75216 
99000000 100 622.03535 
1e+008 100 628.31853 
