! AWR Design Environment (7670) Wed Feb 10 08:23:58 2016
! Document = 'bsp2'
! nPorts: 1, nXvals: 501

# HZ Z RI R 1
!Freq ReZ11 ImZ11 
0 1e-006 0 
200000 0.19719746 6.2769902 
400000 0.78646352 12.516956 
600000 1.7608875 18.683596 
800000 3.1091753 24.742031 
1000000 4.8159728 30.659435 
1200000 6.8622939 36.4056 
1400000 9.2260316 41.953387 
1600000 11.882528 47.279077 
1800000 14.805177 52.362603 
2000000 17.966032 57.187658 
2200000 21.336402 61.741707 
2400000 24.887405 66.015893 
2600000 28.590477 70.004857 
2800000 32.41781 73.706497 
3000000 36.342731 77.121671 
3200000 40.339996 80.253871 
3400000 44.38602 83.108875 
3600000 48.459039 85.694395 
3800000 52.539207 88.019731 
4000000 56.60864 90.095449 
4200000 60.651411 91.933066 
4400000 64.65351 93.544779 
4600000 68.602767 94.943213 
4800000 72.488763 96.141208 
5000000 76.302708 97.151626 
5200000 80.037327 97.987202 
5400000 83.686723 98.660413 
5600000 87.246254 99.183375 
5800000 90.712397 99.567768 
6000000 94.082629 99.82477 
6200000 97.355307 99.965022 
6400000 100.52956 99.998598 
6600000 103.60516 99.934993 
6800000 106.58249 99.783119 
7000000 109.46238 99.55131 
7200000 112.24609 99.247334 
7400000 114.9352 98.878409 
7600000 117.53158 98.451224 
7800000 120.03732 97.971964 
8000000 122.45467 97.446332 
8200000 124.78603 96.879578 
8400000 127.03388 96.276525 
8600000 129.20078 95.641594 
8800000 131.28931 94.978833 
9000000 133.30209 94.291943 
9200000 135.24172 93.584299 
9400000 137.11079 92.858976 
9600000 138.91184 92.118775 
9800000 140.64739 91.366237 
10000000 142.31991 90.60367 
10200000 143.9318 89.833164 
10400000 145.48539 89.056609 
10600000 146.98296 88.275714 
10800000 148.42671 87.492019 
11000000 149.81879 86.706911 
11200000 151.16124 85.921637 
11400000 152.45605 85.137315 
11600000 153.70515 84.354946 
11800000 154.91037 83.575425 
12000000 156.07347 82.79955 
12200000 157.19618 82.028028 
12400000 158.28011 81.261487 
12600000 159.32683 80.500482 
12800000 160.33784 79.7455 
13000000 161.31459 78.996968 
13200000 162.25845 78.255257 
13400000 163.17074 77.520688 
13600000 164.05273 76.793539 
13800000 164.90562 76.074044 
14000000 165.73058 75.362401 
14200000 166.5287 74.658775 
14400000 167.30104 73.9633 
14600000 168.04863 73.276082 
14800000 168.77242 72.597203 
15000000 169.47335 71.926724 
15200000 170.1523 71.264683 
15400000 170.81011 70.611102 
15600000 171.44761 69.965986 
15800000 172.06556 69.329326 
16000000 172.6647 68.701101 
16200000 173.24575 68.081277 
16400000 173.80938 67.46981 
16600000 174.35625 66.866647 
16800000 174.88697 66.271728 
17000000 175.40214 65.684983 
17200000 175.90234 65.10634 
17400000 176.3881 64.535718 
17600000 176.85994 63.973033 
17800000 177.31838 63.418196 
18000000 177.76389 62.871116 
18200000 178.19693 62.331697 
18400000 178.61793 61.799842 
18600000 179.02733 61.275451 
18800000 179.42552 60.758424 
19000000 179.8129 60.248657 
19200000 180.18984 59.746048 
19400000 180.55668 59.250492 
19600000 180.91379 58.761885 
19800000 181.26148 58.280121 
20000000 181.60007 57.805096 
20200000 181.92986 57.336706 
20400000 182.25115 56.874846 
20600000 182.56422 56.419413 
20800000 182.86933 55.970302 
21000000 183.16674 55.527413 
21200000 183.4567 55.090643 
21400000 183.73945 54.659892 
21600000 184.01523 54.235061 
21800000 184.28424 53.81605 
22000000 184.5467 53.402763 
22200000 184.80282 52.995104 
22400000 185.0528 52.592978 
22600000 185.29682 52.196291 
22800000 185.53506 51.804952 
23000000 185.76771 51.418868 
23200000 185.99493 51.037952 
23400000 186.21688 50.662114 
23600000 186.43372 50.291269 
23800000 186.64561 49.92533 
24000000 186.85268 49.564214 
24200000 187.05509 49.207838 
24400000 187.25296 48.856122 
24600000 187.44643 48.508986 
24800000 187.63562 48.16635 
25000000 187.82066 47.828139 
25200000 188.00167 47.494277 
25400000 188.17875 47.16469 
25600000 188.35202 46.839305 
25800000 188.52159 46.51805 
26000000 188.68755 46.200855 
26200000 188.85001 45.887652 
26400000 189.00906 45.578372 
26600000 189.16479 45.27295 
26800000 189.3173 44.97132 
27000000 189.46667 44.673419 
27200000 189.61299 44.379183 
27400000 189.75633 44.088553 
27600000 189.89678 43.801466 
27800000 190.03441 43.517865 
28000000 190.1693 43.237691 
28200000 190.30151 42.960887 
28400000 190.43111 42.687398 
28600000 190.55818 42.417169 
28800000 190.68277 42.150147 
29000000 190.80495 41.886278 
29200000 190.92479 41.625512 
29400000 191.04233 41.367797 
29600000 191.15763 41.113084 
29800000 191.27076 40.861325 
30000000 191.38177 40.612472 
30200000 191.4907 40.366478 
30400000 191.5976 40.123297 
30600000 191.70254 39.882884 
30800000 191.80555 39.645196 
31000000 191.90668 39.410188 
31200000 192.00597 39.177819 
31400000 192.10347 38.948047 
31600000 192.19923 38.720831 
31800000 192.29327 38.496132 
32000000 192.38565 38.273909 
32200000 192.4764 38.054124 
32400000 192.56555 37.83674 
32600000 192.65315 37.621719 
32800000 192.73923 37.409026 
33000000 192.82382 37.198624 
33200000 192.90697 36.990479 
33400000 192.98869 36.784556 
33600000 193.06903 36.580821 
33800000 193.148 36.379242 
34000000 193.22566 36.179786 
34200000 193.30201 35.982422 
34400000 193.3771 35.787117 
34600000 193.45094 35.593842 
34800000 193.52357 35.402567 
35000000 193.59501 35.213261 
35200000 193.66529 35.025896 
35400000 193.73443 34.840443 
35600000 193.80246 34.656875 
35800000 193.86939 34.475165 
36000000 193.93526 34.295284 
36200000 194.00009 34.117207 
36400000 194.06389 33.940909 
36600000 194.12668 33.766362 
36800000 194.1885 33.593543 
37000000 194.24936 33.422427 
37200000 194.30927 33.25299 
37400000 194.36826 33.085208 
37600000 194.42635 32.919058 
37800000 194.48355 32.754517 
38000000 194.53989 32.591563 
38200000 194.59537 32.430173 
38400000 194.65002 32.270326 
38600000 194.70385 32.112 
38800000 194.75688 31.955176 
39000000 194.80913 31.799831 
39200000 194.8606 31.645947 
39400000 194.91132 31.493503 
39600000 194.9613 31.34248 
39800000 195.01056 31.192858 
40000000 195.0591 31.044619 
40200000 195.10694 30.897745 
40400000 195.15409 30.752216 
40600000 195.20057 30.608016 
40800000 195.2464 30.465127 
41000000 195.29157 30.323531 
41200000 195.33611 30.183211 
41400000 195.38002 30.044151 
41600000 195.42333 29.906335 
41800000 195.46603 29.769746 
42000000 195.50814 29.634368 
42200000 195.54967 29.500186 
42400000 195.59063 29.367184 
42600000 195.63103 29.235348 
42800000 195.67089 29.104663 
43000000 195.7102 28.975113 
43200000 195.74899 28.846684 
43400000 195.78725 28.719363 
43600000 195.82501 28.593136 
43800000 195.86226 28.467989 
44000000 195.89902 28.343907 
44200000 195.9353 28.220879 
44400000 195.9711 28.098891 
44600000 196.00643 27.977931 
44800000 196.04131 27.857985 
45000000 196.07573 27.739041 
45200000 196.10971 27.621088 
45400000 196.14325 27.504112 
45600000 196.17636 27.388103 
45800000 196.20905 27.273048 
46000000 196.24132 27.158936 
46200000 196.27319 27.045756 
46400000 196.30466 26.933497 
46600000 196.33573 26.822147 
46800000 196.36641 26.711697 
47000000 196.39671 26.602134 
47200000 196.42664 26.49345 
47400000 196.4562 26.385633 
47600000 196.48539 26.278674 
47800000 196.51423 26.172562 
48000000 196.54272 26.067288 
48200000 196.57086 25.962841 
48400000 196.59866 25.859214 
48600000 196.62613 25.756395 
48800000 196.65326 25.654376 
49000000 196.68007 25.553148 
49200000 196.70657 25.452701 
49400000 196.73275 25.353027 
49600000 196.75861 25.254118 
49800000 196.78418 25.155964 
50000000 196.80945 25.058557 
50200000 196.83442 24.961889 
50400000 196.8591 24.865951 
50600000 196.88349 24.770736 
50800000 196.9076 24.676235 
51000000 196.93144 24.582441 
51200000 196.955 24.489345 
51400000 196.97829 24.396941 
51600000 197.00132 24.30522 
51800000 197.02409 24.214176 
52000000 197.0466 24.1238 
52200000 197.06886 24.034086 
52400000 197.09086 23.945027 
52600000 197.11262 23.856615 
52800000 197.13414 23.768844 
53000000 197.15543 23.681706 
53200000 197.17647 23.595196 
53400000 197.19729 23.509306 
53600000 197.21787 23.424029 
53800000 197.23823 23.339361 
54000000 197.25837 23.255293 
54200000 197.2783 23.17182 
54400000 197.298 23.088935 
54600000 197.31749 23.006633 
54800000 197.33678 22.924908 
55000000 197.35586 22.843753 
55200000 197.37473 22.763162 
55400000 197.39341 22.683131 
55600000 197.41188 22.603652 
55800000 197.43016 22.524722 
56000000 197.44825 22.446333 
56200000 197.46615 22.36848 
56400000 197.48387 22.291159 
56600000 197.5014 22.214363 
56800000 197.51874 22.138087 
57000000 197.53591 22.062327 
57200000 197.5529 21.987077 
57400000 197.56972 21.912332 
57600000 197.58636 21.838088 
57800000 197.60284 21.764338 
58000000 197.61914 21.691078 
58200000 197.63529 21.618304 
58400000 197.65126 21.546011 
58600000 197.66708 21.474193 
58800000 197.68274 21.402847 
59000000 197.69825 21.331968 
59200000 197.71359 21.261551 
59400000 197.72879 21.191592 
59600000 197.74384 21.122087 
59800000 197.75873 21.05303 
60000000 197.77348 20.984418 
60200000 197.78809 20.916247 
60400000 197.80255 20.848513 
60600000 197.81688 20.78121 
60800000 197.83106 20.714336 
61000000 197.84511 20.647886 
61200000 197.85902 20.581857 
61400000 197.87279 20.516243 
61600000 197.88644 20.451042 
61800000 197.89995 20.38625 
62000000 197.91334 20.321862 
62200000 197.9266 20.257875 
62400000 197.93973 20.194286 
62600000 197.95274 20.131091 
62800000 197.96563 20.068285 
63000000 197.97839 20.005866 
63200000 197.99104 19.943831 
63400000 198.00357 19.882174 
63600000 198.01598 19.820894 
63800000 198.02828 19.759987 
64000000 198.04046 19.699449 
64200000 198.05253 19.639277 
64400000 198.06449 19.579468 
64600000 198.07634 19.520018 
64800000 198.08808 19.460925 
65000000 198.09972 19.402184 
65200000 198.11125 19.343794 
65400000 198.12268 19.285751 
65600000 198.134 19.228052 
65800000 198.14522 19.170694 
66000000 198.15634 19.113674 
66200000 198.16736 19.056988 
66400000 198.17829 19.000635 
66600000 198.18911 18.944611 
66800000 198.19984 18.888913 
67000000 198.21048 18.833539 
67200000 198.22102 18.778485 
67400000 198.23147 18.72375 
67600000 198.24182 18.669329 
67800000 198.25209 18.615221 
68000000 198.26227 18.561424 
68200000 198.27236 18.507933 
68400000 198.28236 18.454747 
68600000 198.29228 18.401863 
68800000 198.30211 18.349279 
69000000 198.31185 18.296992 
69200000 198.32151 18.245 
69400000 198.33109 18.193299 
69600000 198.34059 18.141888 
69800000 198.35001 18.090765 
70000000 198.35935 18.039926 
70200000 198.36861 17.98937 
70400000 198.37779 17.939094 
70600000 198.38689 17.889096 
70800000 198.39592 17.839374 
71000000 198.40487 17.789924 
71200000 198.41375 17.740747 
71400000 198.42255 17.691838 
71600000 198.43128 17.643195 
71800000 198.43994 17.594818 
72000000 198.44853 17.546703 
72200000 198.45705 17.498848 
72400000 198.4655 17.451251 
72600000 198.47387 17.403911 
72800000 198.48218 17.356825 
73000000 198.49043 17.30999 
73200000 198.4986 17.263406 
73400000 198.50671 17.217071 
73600000 198.51476 17.170981 
73800000 198.52274 17.125135 
74000000 198.53065 17.079532 
74200000 198.53851 17.03417 
74400000 198.5463 16.989045 
74600000 198.55402 16.944158 
74800000 198.56169 16.899505 
75000000 198.5693 16.855085 
75200000 198.57684 16.810897 
75400000 198.58433 16.766938 
75600000 198.59176 16.723206 
75800000 198.59913 16.679701 
76000000 198.60644 16.636419 
76200000 198.61369 16.59336 
76400000 198.62089 16.550522 
76600000 198.62803 16.507903 
76800000 198.63512 16.465501 
77000000 198.64215 16.423315 
77200000 198.64913 16.381343 
77400000 198.65606 16.339583 
77600000 198.66293 16.298035 
77800000 198.66975 16.256696 
78000000 198.67652 16.215564 
78200000 198.68324 16.174639 
78400000 198.6899 16.133918 
78600000 198.69652 16.093401 
78800000 198.70308 16.053085 
79000000 198.7096 16.01297 
79200000 198.71607 15.973053 
79400000 198.72248 15.933333 
79600000 198.72886 15.893809 
79800000 198.73518 15.854479 
80000000 198.74146 15.815342 
80200000 198.74768 15.776397 
80400000 198.75387 15.737642 
80600000 198.76001 15.699076 
80800000 198.7661 15.660697 
81000000 198.77215 15.622504 
81200000 198.77815 15.584495 
81400000 198.78411 15.54667 
81600000 198.79003 15.509027 
81800000 198.7959 15.471565 
82000000 198.80174 15.434282 
82200000 198.80752 15.397178 
82400000 198.81327 15.36025 
82600000 198.81898 15.323498 
82800000 198.82464 15.28692 
83000000 198.83027 15.250516 
83200000 198.83585 15.214283 
83400000 198.8414 15.178221 
83600000 198.8469 15.142329 
83800000 198.85237 15.106605 
84000000 198.85779 15.071048 
84200000 198.86318 15.035657 
84400000 198.86853 15.000431 
84600000 198.87385 14.965369 
84800000 198.87912 14.93047 
85000000 198.88436 14.895731 
85200000 198.88957 14.861154 
85400000 198.89473 14.826735 
85600000 198.89986 14.792475 
85800000 198.90496 14.758372 
86000000 198.91002 14.724424 
86200000 198.91504 14.690632 
86400000 198.92003 14.656994 
86600000 198.92499 14.623508 
86800000 198.92991 14.590174 
87000000 198.9348 14.556991 
87200000 198.93965 14.523958 
87400000 198.94447 14.491074 
87600000 198.94926 14.458337 
87800000 198.95402 14.425747 
88000000 198.95874 14.393303 
88200000 198.96344 14.361004 
88400000 198.9681 14.328849 
88600000 198.97273 14.296837 
88800000 198.97732 14.264966 
89000000 198.98189 14.233237 
89200000 198.98643 14.201647 
89400000 198.99094 14.170197 
89600000 198.99541 14.138886 
89800000 198.99986 14.107711 
90000000 199.00428 14.076673 
90200000 199.00867 14.045771 
90400000 199.01303 14.015003 
90600000 199.01736 13.984369 
90800000 199.02166 13.953868 
91000000 199.02594 13.9235 
91200000 199.03018 13.893262 
91400000 199.0344 13.863155 
91600000 199.03859 13.833177 
91800000 199.04276 13.803329 
92000000 199.0469 13.773608 
92200000 199.05101 13.744014 
92400000 199.05509 13.714546 
92600000 199.05915 13.685204 
92800000 199.06318 13.655987 
93000000 199.06719 13.626893 
93200000 199.07117 13.597923 
93400000 199.07512 13.569075 
93600000 199.07905 13.540349 
93800000 199.08296 13.511743 
94000000 199.08684 13.483257 
94200000 199.0907 13.454891 
94400000 199.09453 13.426643 
94600000 199.09833 13.398513 
94800000 199.10212 13.370501 
95000000 199.10588 13.342604 
95200000 199.10961 13.314823 
95400000 199.11333 13.287157 
95600000 199.11702 13.259606 
95800000 199.12068 13.232167 
96000000 199.12433 13.204842 
96200000 199.12795 13.177629 
96400000 199.13155 13.150527 
96600000 199.13512 13.123536 
96800000 199.13868 13.096655 
97000000 199.14221 13.069883 
97200000 199.14572 13.043221 
97400000 199.14921 13.016666 
97600000 199.15268 12.990219 
97800000 199.15613 12.963878 
98000000 199.15956 12.937644 
98200000 199.16296 12.911515 
98400000 199.16635 12.885491 
98600000 199.16971 12.859572 
98800000 199.17305 12.833756 
99000000 199.17638 12.808042 
99200000 199.17968 12.782432 
99400000 199.18297 12.756923 
99600000 199.18623 12.731515 
99800000 199.18948 12.706208 
1e+008 199.1927 12.681001 
