! AWR Design Environment (7670) Wed Feb 10 14:48:53 2016
! Document = 'bsp4'
! nPorts: 1, nXvals: 271

# HZ Z MA R 1
!Freq MagZ11 AngZ11 
1000000 9.980319 -3.5952738 
1023293 9.9793944 -3.6787911 
1047128.5 9.9784264 -3.7642376 
1071519.3 9.9774131 -3.851657 
1096478.2 9.9763524 -3.9410941 
1122018.5 9.9752421 -4.0325946 
1148153.6 9.9740798 -4.126205 
1174897.6 9.9728632 -4.221973 
1202264.4 9.9715897 -4.3199474 
1230268.8 9.9702567 -4.4201776 
1258925.4 9.9688615 -4.5227144 
1288249.6 9.9674012 -4.6276096 
1318256.7 9.9658727 -4.7349159 
1348962.9 9.9642729 -4.8446873 
1380384.3 9.9625986 -4.9569786 
1412537.5 9.9608463 -5.0718461 
1445439.8 9.9590123 -5.1893468 
1479108.4 9.9570931 -5.3095392 
1513561.2 9.9550845 -5.4324827 
1548816.6 9.9529826 -5.558238 
1584893.2 9.9507831 -5.686867 
1621810.1 9.9484815 -5.8184325 
1659586.9 9.9460731 -5.9529989 
1698243.7 9.9435531 -6.0906315 
1737800.8 9.9409163 -6.2313971 
1778279.4 9.9381576 -6.3753632 
1819700.9 9.9352713 -6.5225992 
1862087.1 9.9322516 -6.6731752 
1905460.7 9.9290926 -6.8271627 
1949844.6 9.925788 -6.9846346 
1995262.3 9.9223311 -7.1456647 
2041737.9 9.9187152 -7.3103282 
2089296.1 9.9149331 -7.4787017 
2137962.1 9.9109774 -7.6508627 
2187761.6 9.9068404 -7.82689 
2238721.1 9.9025139 -8.0068637 
2290867.7 9.8979896 -8.1908651 
2344228.8 9.8932587 -8.3789764 
2398832.9 9.8883121 -8.5712812 
2454708.9 9.8831403 -8.7678641 
2511886.4 9.8777335 -8.9688108 
2570395.8 9.8720814 -9.1742081 
2630268 9.8661732 -9.3841438 
2691534.8 9.859998 -9.5987066 
2754228.7 9.8535442 -9.8179861 
2818382.9 9.8467998 -10.042073 
2884031.5 9.8397523 -10.271059 
2951209.2 9.8323889 -10.505035 
3019951.7 9.8246962 -10.744095 
3090295.4 9.8166602 -10.988333 
3162277.7 9.8082666 -11.237841 
3235936.6 9.7995005 -11.492715 
3311311.2 9.7903463 -11.753049 
3388441.6 9.7807882 -12.018939 
3467368.5 9.7708096 -12.290479 
3548133.9 9.7603934 -12.567764 
3630780.5 9.7495219 -12.850891 
3715352.3 9.7381769 -13.139952 
3801894 9.7263395 -13.435044 
3890451.4 9.7139904 -13.736259 
3981071.7 9.7011097 -14.043691 
4073802.8 9.6876766 -14.357432 
4168693.8 9.6736701 -14.677573 
4265795.2 9.6590684 -15.004203 
4365158.3 9.6438492 -15.337411 
4466835.9 9.6279896 -15.677284 
4570881.9 9.6114661 -16.023906 
4677351.4 9.5942547 -16.377359 
4786300.9 9.576331 -16.737722 
4897788.2 9.5576697 -17.105074 
5011872.3 9.5382455 -17.479487 
5128613.8 9.5180322 -17.861033 
5248074.6 9.4970034 -18.249778 
5370318 9.4751323 -18.645785 
5495408.7 9.4523916 -19.049113 
5623413.3 9.4287537 -19.459816 
5754399.4 9.404191 -19.877942 
5888436.6 9.3786753 -20.303535 
6025595.9 9.3521784 -20.736633 
6165950 9.324672 -21.177268 
6309573.4 9.2961279 -21.625464 
6456542.3 9.2665177 -22.081239 
6606934.5 9.2358133 -22.544605 
6760829.8 9.2039867 -23.015565 
6918309.7 9.1710104 -23.494114 
7079457.8 9.136857 -23.980238 
7244359.6 9.1014998 -24.473915 
7413102.4 9.0649127 -24.975113 
7585775.8 9.0270703 -25.483792 
7762471.2 8.987948 -25.999901 
7943282.3 8.9475223 -26.523377 
8128305.2 8.9057706 -27.05415 
8317637.7 8.8626717 -27.592135 
8511380.4 8.8182055 -28.137239 
8709635.9 8.7723537 -28.689355 
8912509.4 8.7250993 -29.248367 
9120108.4 8.6764273 -29.814146 
9332543 8.6263245 -30.386548 
9549925.9 8.5747797 -30.965422 
9772372.2 8.5217838 -31.550601 
10000000 8.4673302 -32.141908 
10232930 8.4114143 -32.739151 
10471285 8.3540345 -33.342128 
10715193 8.2951915 -33.950626 
10964782 8.2348887 -34.564416 
11220185 8.1731326 -35.183262 
11481536 8.1099323 -35.806914 
11748976 8.0453 -36.435111 
12022644 7.9792509 -37.067582 
12302688 7.9118034 -37.704047 
12589254 7.8429786 -38.344214 
12882496 7.7728012 -38.987784 
13182567 7.7012987 -39.634448 
13489629 7.6285017 -40.283889 
13803843 7.5544438 -40.935786 
14125375 7.4791617 -41.589809 
14454398 7.402695 -42.245622 
14791084 7.3250861 -42.902886 
15135612 7.24638 -43.561258 
15488166 7.1666245 -44.220391 
15848932 7.0858697 -44.879937 
16218101 7.004168 -45.539547 
16595869 6.921574 -46.19887 
16982437 6.8381444 -46.85756 
17378008 6.7539373 -47.515267 
17782794 6.6690128 -48.171648 
18197009 6.5834322 -48.826361 
18620871 6.4972578 -49.47907 
19054607 6.4105531 -50.129443 
19498446 6.3233823 -50.777155 
19952623 6.2358101 -51.421887 
20417379 6.1479012 -52.063328 
20892961 6.0597209 -52.701175 
21379621 5.971334 -53.335133 
21877616 5.882805 -53.964918 
22387211 5.794198 -54.590255 
22908677 5.7055763 -55.21088 
23442288 5.6170022 -55.826539 
23988329 5.528537 -56.43699 
24547089 5.4402408 -57.042002 
25118864 5.3521721 -57.641357 
25703958 5.264388 -58.234847 
26302680 5.1769438 -58.822278 
26915348 5.0898933 -59.403467 
27542287 5.0032881 -59.978244 
28183829 4.9171779 -60.54645 
28840315 4.8316104 -61.107941 
29512092 4.7466312 -61.662582 
30199517 4.6622836 -62.210252 
30902954 4.5786089 -62.75084 
31622777 4.4956459 -63.284248 
32359366 4.4134315 -63.810389 
33113112 4.332 -64.329188 
33884416 4.2513837 -64.840578 
34673685 4.1716126 -65.344505 
35481339 4.0927144 -65.840924 
36307805 4.0147147 -66.3298 
37153523 3.937637 -66.811109 
38018940 3.8615026 -67.284832 
38904514 3.7863307 -67.750962 
39810717 3.7121388 -68.2095 
40738028 3.6389421 -68.660454 
41686938 3.5667542 -69.103838 
42657952 3.4955867 -69.539676 
43651583 3.4254496 -69.967997 
44668359 3.3563511 -70.388837 
45708819 3.2882978 -70.802236 
46773514 3.221295 -71.208243 
47863009 3.1553462 -71.606909 
48977882 3.0904537 -71.99829 
50118723 3.0266186 -72.382449 
51286138 2.9638404 -72.759451 
52480746 2.9021177 -73.129365 
53703180 2.8414481 -73.492264 
54954087 2.7818277 -73.848223 
56234133 2.7232522 -74.197322 
57543994 2.6657159 -74.539642 
58884366 2.6092126 -74.875266 
60255959 2.5537351 -75.204281 
61659500 2.4992756 -75.526774 
63095734 2.4458256 -75.842834 
64565423 2.3933759 -76.152552 
66069345 2.3419169 -76.45602 
67608298 2.2914383 -76.75333 
69183097 2.2419294 -77.044575 
70794578 2.1933792 -77.329851 
72443596 2.1457761 -77.609252 
74131024 2.0991084 -77.882873 
75857758 2.0533639 -78.150808 
77624712 2.0085303 -78.413154 
79432823 1.9645949 -78.670004 
81283052 1.921545 -78.921455 
83176377 1.8793675 -79.1676 
85113804 1.8380494 -79.408534 
87096359 1.7975775 -79.64435 
89125094 1.7579384 -79.875142 
91201084 1.7191188 -80.101002 
93325430 1.6811053 -80.322021 
95499259 1.6438845 -80.53829 
97723722 1.6074429 -80.7499 
1e+008 1.5717673 -80.956939 
1.023293e+008 1.5368441 -81.159496 
1.0471285e+008 1.5026602 -81.357657 
1.0715193e+008 1.4692022 -81.551509 
1.0964782e+008 1.436457 -81.741138 
1.1220185e+008 1.4044115 -81.926625 
1.1481536e+008 1.3730528 -82.108056 
1.1748976e+008 1.3423679 -82.28551 
1.2022644e+008 1.3123442 -82.45907 
1.2302688e+008 1.2829689 -82.628813 
1.2589254e+008 1.2542296 -82.794818 
1.2882496e+008 1.226114 -82.957162 
1.3182567e+008 1.1986098 -83.115921 
1.3489629e+008 1.171705 -83.271168 
1.3803843e+008 1.1453877 -83.422978 
1.4125375e+008 1.119646 -83.571421 
1.4454398e+008 1.0944686 -83.71657 
1.4791084e+008 1.0698439 -83.858492 
1.5135612e+008 1.0457606 -83.997258 
1.5488166e+008 1.0222078 -84.132933 
1.5848932e+008 0.99917452 -84.265583 
1.6218101e+008 0.97664997 -84.395274 
1.6595869e+008 0.95462364 -84.522068 
1.6982437e+008 0.93308512 -84.646028 
1.7378008e+008 0.91202422 -84.767215 
1.7782794e+008 0.89143089 -84.885688 
1.8197009e+008 0.87129527 -85.001508 
1.8620871e+008 0.85160767 -85.11473 
1.9054607e+008 0.83235857 -85.225413 
1.9498446e+008 0.81353862 -85.33361 
1.9952623e+008 0.79513866 -85.439377 
2.0417379e+008 0.77714967 -85.542766 
2.0892961e+008 0.75956283 -85.64383 
2.1379621e+008 0.74236946 -85.74262 
2.1877616e+008 0.72556106 -85.839185 
2.2387211e+008 0.70912928 -85.933576 
2.2908677e+008 0.69306597 -86.025839 
2.3442288e+008 0.67736308 -86.116021 
2.3988329e+008 0.66201277 -86.20417 
2.4547089e+008 0.64700734 -86.29033 
2.5118864e+008 0.63233922 -86.374544 
2.5703958e+008 0.61800104 -86.456857 
2.630268e+008 0.60398553 -86.53731 
2.6915348e+008 0.5902856 -86.615945 
2.7542287e+008 0.5768943 -86.692803 
2.8183829e+008 0.56380481 -86.767923 
2.8840315e+008 0.55101046 -86.841343 
2.9512092e+008 0.53850472 -86.913102 
3.0199517e+008 0.5262812 -86.983237 
3.0902954e+008 0.51433364 -87.051784 
3.1622777e+008 0.5026559 -87.11878 
3.2359366e+008 0.49124199 -87.184257 
3.3113112e+008 0.48008603 -87.248252 
3.3884416e+008 0.46918227 -87.310796 
3.4673685e+008 0.45852509 -87.371923 
3.5481339e+008 0.44810899 -87.431665 
3.6307805e+008 0.43792857 -87.490051 
3.7153523e+008 0.42797857 -87.547114 
3.801894e+008 0.41825383 -87.602883 
3.8904514e+008 0.40874931 -87.657386 
3.9810717e+008 0.39946005 -87.710653 
4.0738028e+008 0.39038125 -87.762712 
4.1686938e+008 0.38150817 -87.813589 
4.2657952e+008 0.3728362 -87.863311 
4.3651583e+008 0.36436081 -87.911904 
4.4668359e+008 0.35607758 -87.959394 
4.5708819e+008 0.3479822 -88.005806 
4.6773514e+008 0.34007042 -88.051164 
4.7863009e+008 0.33233812 -88.095492 
4.8977882e+008 0.32478126 -88.138813 
5e+008 0.31814875 -88.176834 
