! AWR Design Environment (7670) Wed Feb 10 15:01:30 2016
! Document = 'bsp6'
! nPorts: 1, nXvals: 1001

# HZ Z RI R 1
!Freq ReZ11 ImZ11 
10 1.9739209e-008 0.0062831853 
1010 0.00020137587 0.63462721 
2010 0.00079773791 1.2631212 
3010 0.0017896705 1.8919138 
4010 0.0031781132 2.5211538 
5010 0.0049643825 3.1509904 
6010 0.0071501737 3.7815733 
7010 0.0097375643 4.4130527 
8010 0.012729017 5.0455795 
9010 0.016127387 5.6793057 
10010 0.019935921 6.3143839 
11010 0.024158269 6.9509679 
12010 0.028798489 7.5892127 
13010 0.033861054 8.2292747 
14010 0.03935086 8.8713117 
15010 0.045273234 9.515483 
16010 0.051633946 10.16195 
17010 0.058439219 10.810875 
18010 0.065695739 11.462424 
19010 0.07341067 12.116763 
20010 0.081591666 12.774063 
21010 0.090246884 13.434494 
22010 0.099385002 14.098231 
23010 0.10901524 14.765452 
24010 0.11914735 15.436337 
25010 0.1297917 16.111069 
26010 0.14095922 16.789835 
27010 0.15266145 17.472824 
28010 0.1649106 18.160231 
29010 0.17771951 18.852253 
30010 0.19110174 19.549091 
31010 0.20507155 20.250952 
32010 0.21964394 20.958045 
33010 0.23483472 21.670586 
34010 0.25066048 22.388795 
35010 0.26713868 23.112897 
36010 0.28428765 23.843122 
37010 0.30212666 24.579708 
38010 0.32067595 25.322896 
39010 0.33995677 26.072936 
40010 0.35999144 26.830082 
41010 0.38080338 27.594596 
42010 0.40241721 28.36675 
43010 0.42485876 29.146818 
44010 0.44815516 29.935088 
45010 0.47233488 30.731851 
46010 0.49742785 31.537411 
47010 0.52346549 32.352078 
48010 0.55048081 33.176175 
49010 0.57850847 34.010032 
50010 0.60758493 34.853991 
51010 0.63774847 35.708405 
52010 0.66903937 36.57364 
53010 0.70149996 37.450071 
54010 0.73517479 38.338089 
55010 0.7701107 39.238098 
56010 0.80635702 40.150515 
57010 0.84396567 41.075772 
58010 0.88299131 42.014318 
59010 0.92349158 42.966619 
60010 0.96552717 43.933155 
61010 1.0091621 44.914428 
62010 1.0544639 45.910957 
63010 1.1015039 46.923282 
64010 1.1503571 47.951965 
65010 1.2011032 48.997589 
66010 1.253826 50.060762 
67010 1.3086143 51.142117 
68010 1.365562 52.242312 
69010 1.4247683 53.362034 
70010 1.4863386 54.502 
71010 1.5503842 55.662957 
72010 1.6170233 56.845685 
73010 1.6863812 58.051 
74010 1.7585908 59.279752 
75010 1.8337934 60.532835 
76010 1.9121391 61.811179 
77010 1.9937873 63.115762 
78010 2.0789079 64.447606 
79010 2.1676817 65.807785 
80010 2.2603013 67.197422 
81010 2.3569721 68.6177 
82010 2.4579133 70.069859 
83010 2.563359 71.555204 
84010 2.6735595 73.075105 
85010 2.7887823 74.631007 
86010 2.909314 76.224432 
87010 3.0354617 77.856981 
88010 3.1675547 79.530346 
89010 3.3059464 81.246313 
90010 3.4510165 83.006768 
91010 3.6031738 84.813706 
92010 3.7628578 86.669236 
93010 3.9305425 88.575594 
94010 4.1067393 90.53515 
95010 4.2920005 92.550417 
96010 4.4869231 94.624065 
97010 4.6921535 96.758931 
98010 4.9083924 98.958034 
99010 5.1363999 101.22459 
100010 5.3770021 103.56202 
101010 5.6310976 105.97399 
102010 5.8996657 108.4644 
103010 6.1837745 111.03743 
104010 6.4845912 113.69755 
105010 6.803393 116.44956 
106010 7.1415796 119.2986 
107010 7.5006876 122.25021 
108010 7.8824066 125.31034 
109010 8.2885979 128.48539 
110010 8.7213152 131.78228 
111010 9.1828293 135.20848 
112010 9.6756557 138.77209 
113010 10.202587 142.48186 
114010 10.766728 146.3473 
115010 11.371542 150.37876 
116010 12.020899 154.5875 
117010 12.719131 158.9858 
118010 13.471106 163.58711 
119010 14.282302 168.40611 
120010 15.158904 173.45897 
121010 16.107914 178.76343 
122010 17.137286 184.33905 
123010 18.256076 190.20744 
124010 19.47464 196.39251 
125010 20.804851 202.92082 
126010 22.260381 209.82192 
127010 23.857025 217.12875 
128010 25.613115 224.87819 
129010 27.550012 233.11161 
130010 29.692724 241.87557 
131010 32.07067 251.22263 
132010 34.718634 261.21234 
133010 37.677973 271.91233 
134010 40.99814 283.39977 
135010 44.738638 295.76296 
136010 48.971541 309.10333 
137010 53.78476 323.53782 
138010 59.286342 339.20173 
139010 65.610162 356.2522 
140010 72.923544 374.87231 
141010 81.437582 395.27596 
142010 91.421275 417.71366 
143010 103.22113 442.47899 
144010 117.28867 469.91564 
145010 134.21961 500.42414 
146010 154.81028 534.4664 
147010 180.13998 572.56402 
148010 211.69255 615.28153 
149010 251.53699 663.17654 
150010 302.59614 716.67835 
151010 369.04002 775.81538 
152010 456.83396 839.6253 
153010 574.39922 904.91103 
154010 733.04632 963.70936 
155010 945.88129 998.53451 
156010 1221.4441 975.17308 
157010 1544.8857 838.5103 
158010 1846.0328 533.13082 
159010 1997.3471 72.792865 
160010 1912.1643 -409.82472 
161010 1646.2665 -763.1118 
162010 1328.1534 -944.62445 
163010 1043.4806 -999.05427 
164010 817.94208 -983.28781 
165010 647.40318 -935.77534 
166010 519.89154 -877.20913 
167010 424.06336 -817.49433 
168010 351.16518 -760.92929 
169010 294.88698 -709.09494 
170010 250.77464 -662.31515 
171010 215.68751 -620.36596 
172010 187.39348 -582.8127 
173010 164.28702 -549.16647 
174010 145.1975 -518.95345 
175010 129.25942 -491.74265 
176010 115.82406 -467.15405 
177010 104.39881 -444.85784 
178010 94.604893 -424.57002 
179010 86.147728 -406.04683 
180010 78.795682 -389.07918 
181010 72.364784 -373.48749 
182010 66.707539 -359.11723 
183010 61.704655 -345.835 
184010 57.258861 -333.52533 
185010 53.290234 -322.08791 
186010 49.732638 -311.43529 
187010 46.530979 -301.49101 
188010 43.639077 -292.18793 
189010 41.017992 -283.46694 
190010 38.634714 -275.27584 
191010 36.46111 -267.56832 
192010 34.473089 -260.30326 
193010 32.649926 -253.44395 
194010 30.973712 -246.95759 
195010 29.42891 -240.81478 
196010 28.001987 -234.98907 
197010 26.681113 -229.45663 
198010 25.455909 -224.19593 
199010 24.317239 -219.18748 
200010 23.257036 -214.41358 
201010 22.268156 -209.85815 
202010 21.344251 -205.50651 
203010 20.479669 -201.34528 
204010 19.66936 -197.3622 
205010 18.908805 -193.54603 
206010 18.193947 -189.88648 
207010 17.521137 -186.37404 
208010 16.887085 -182.99999 
209010 16.288817 -179.75625 
210010 15.723643 -176.63537 
211010 15.189122 -173.63046 
212010 14.683035 -170.73511 
213010 14.203361 -167.9434 
214010 13.748258 -165.24982 
215010 13.316043 -162.64922 
216010 12.905175 -160.13683 
217010 12.514241 -157.7082 
218010 12.141945 -155.35914 
219010 11.787096 -153.08578 
220010 11.448596 -150.88447 
221010 11.125434 -148.75178 
222010 10.816676 -146.68453 
223010 10.521458 -144.6797 
224010 10.238982 -142.73446 
225010 9.9685075 -140.84617 
226010 9.7093478 -139.01232 
227010 9.4608649 -137.23054 
228010 9.2224659 -135.49863 
229010 8.9935986 -133.81447 
230010 8.7737487 -132.17609 
231010 8.5624365 -130.58161 
232010 8.3592139 -129.02927 
233010 8.1636623 -127.51737 
234010 7.9753902 -126.04433 
235010 7.7940309 -124.60865 
236010 7.6192409 -123.20888 
237010 7.4506979 -121.84368 
238010 7.2880993 -120.51175 
239010 7.1311611 -119.21186 
240010 6.979616 -117.94285 
241010 6.8332126 -116.70361 
242010 6.6917141 -115.49307 
243010 6.5548975 -114.31023 
244010 6.4225524 -113.15412 
245010 6.2944801 -112.02384 
246010 6.1704931 -110.91849 
247010 6.0504143 -109.83725 
248010 5.9340761 -108.77931 
249010 5.8213199 -107.74392 
250010 5.7119956 -106.73033 
251010 5.605961 -105.73786 
252010 5.5030811 -104.76583 
253010 5.4032281 -103.81359 
254010 5.3062806 -102.88054 
255010 5.2121234 -101.96608 
256010 5.1206468 -101.06964 
257010 5.0317467 -100.19069 
258010 4.9453241 -99.328707 
259010 4.8612848 -98.483184 
260010 4.7795389 -97.653642 
261010 4.700001 -96.83962 
262010 4.6225895 -96.040672 
263010 4.5472268 -95.256372 
264010 4.4738388 -94.486307 
265010 4.4023545 -93.730083 
266010 4.3327066 -92.987316 
267010 4.2648304 -92.25764 
268010 4.1986643 -91.5407 
269010 4.1341492 -90.836156 
270010 4.0712288 -90.143678 
271010 4.0098491 -89.462949 
272010 3.9499582 -88.793662 
273010 3.8915069 -88.135521 
274010 3.8344476 -87.488241 
275010 3.7787349 -86.851546 
276010 3.7243252 -86.225169 
277010 3.6711767 -85.608854 
278010 3.6192493 -85.002351 
279010 3.5685045 -84.405419 
280010 3.5189053 -83.817825 
281010 3.4704162 -83.239345 
282010 3.4230031 -82.66976 
283010 3.3766332 -82.108859 
284010 3.331275 -81.556438 
285010 3.2868981 -81.012298 
286010 3.2434734 -80.476249 
287010 3.2009728 -79.948104 
288010 3.1593692 -79.427683 
289010 3.1186367 -78.914811 
290010 3.07875 -78.409319 
291010 3.0396852 -77.911044 
292010 3.0014188 -77.419824 
293010 2.9639285 -76.935506 
294010 2.9271925 -76.45794 
295010 2.8911901 -75.98698 
296010 2.8559009 -75.522484 
297010 2.8213056 -75.064315 
298010 2.7873853 -74.612339 
299010 2.754122 -74.166426 
300010 2.7214981 -73.726451 
301010 2.6894966 -73.29229 
302010 2.6581013 -72.863825 
303010 2.6272962 -72.44094 
304010 2.5970661 -72.023521 
305010 2.5673963 -71.611459 
306010 2.5382723 -71.204647 
307010 2.5096804 -70.802982 
308010 2.4816071 -70.406362 
309010 2.4540394 -70.014688 
310010 2.4269649 -69.627865 
311010 2.4003713 -69.2458 
312010 2.3742468 -68.868401 
313010 2.3485801 -68.495579 
314010 2.32336 -68.127249 
315010 2.2985759 -67.763326 
316010 2.2742173 -67.403728 
317010 2.2502742 -67.048376 
318010 2.2267367 -66.69719 
319010 2.2035955 -66.350095 
320010 2.1808412 -66.007017 
321010 2.1584649 -65.667883 
322010 2.136458 -65.332622 
323010 2.114812 -65.001167 
324010 2.0935189 -64.673448 
325010 2.0725705 -64.349401 
326010 2.0519593 -64.028962 
327010 2.0316776 -63.712068 
328010 2.0117183 -63.398657 
329010 1.9920743 -63.08867 
330010 1.9727387 -62.782049 
331010 1.9537047 -62.478736 
332010 1.9349659 -62.178676 
333010 1.916516 -61.881814 
334010 1.8983488 -61.588098 
335010 1.8804582 -61.297474 
336010 1.8628386 -61.009893 
337010 1.8454842 -60.725304 
338010 1.8283895 -60.443659 
339010 1.8115491 -60.16491 
340010 1.7949578 -59.889011 
341010 1.7786105 -59.615916 
342010 1.7625022 -59.345581 
343010 1.7466281 -59.077962 
344010 1.7309835 -58.813015 
345010 1.7155639 -58.550701 
346010 1.7003646 -58.290977 
347010 1.6853815 -58.033804 
348010 1.6706101 -57.779142 
349010 1.6560464 -57.526954 
350010 1.6416864 -57.277201 
351010 1.6275261 -57.029846 
352010 1.6135617 -56.784855 
353010 1.5997893 -56.54219 
354010 1.5862054 -56.301819 
355010 1.5728064 -56.063706 
356010 1.5595888 -55.827819 
357010 1.5465492 -55.594124 
358010 1.5336843 -55.362591 
359010 1.5209909 -55.133188 
360010 1.5084658 -54.905883 
361010 1.4961058 -54.680648 
362010 1.483908 -54.457452 
363010 1.4718695 -54.236267 
364010 1.4599874 -54.017064 
365010 1.4482588 -53.799815 
366010 1.436681 -53.584493 
367010 1.4252513 -53.371072 
368010 1.4139672 -53.159524 
369010 1.4028259 -52.949825 
370010 1.3918252 -52.741949 
371010 1.3809624 -52.53587 
372010 1.3702351 -52.331565 
373010 1.3596412 -52.12901 
374010 1.3491781 -51.928181 
375010 1.3388438 -51.729055 
376010 1.328636 -51.53161 
377010 1.3185526 -51.335823 
378010 1.3085915 -51.141672 
379010 1.2987506 -50.949136 
380010 1.2890279 -50.758194 
381010 1.2794215 -50.568826 
382010 1.2699294 -50.38101 
383010 1.2605498 -50.194726 
384010 1.2512807 -50.009957 
385010 1.2421205 -49.826681 
386010 1.2330673 -49.64488 
387010 1.2241193 -49.464535 
388010 1.215275 -49.285628 
389010 1.2065327 -49.108142 
390010 1.1978906 -48.932058 
391010 1.1893473 -48.757359 
392010 1.1809011 -48.584027 
393010 1.1725506 -48.412047 
394010 1.1642942 -48.241401 
395010 1.1561305 -48.072074 
396010 1.148058 -47.904049 
397010 1.1400753 -47.73731 
398010 1.132181 -47.571843 
399010 1.1243738 -47.407631 
400010 1.1166524 -47.24466 
401010 1.1090154 -47.082916 
402010 1.1014616 -46.922383 
403010 1.0939897 -46.763048 
404010 1.0865985 -46.604896 
405010 1.0792868 -46.447913 
406010 1.0720533 -46.292087 
407010 1.064897 -46.137404 
408010 1.0578167 -45.98385 
409010 1.0508113 -45.831412 
410010 1.0438796 -45.680079 
411010 1.0370207 -45.529836 
412010 1.0302334 -45.380673 
413010 1.0235168 -45.232576 
414010 1.0168697 -45.085534 
415010 1.0102913 -44.939535 
416010 1.0037804 -44.794568 
417010 0.99733628 -44.65062 
418010 0.99095784 -44.507681 
419010 0.98464419 -44.36574 
420010 0.97839442 -44.224785 
421010 0.97220764 -44.084806 
422010 0.96608297 -43.945792 
423010 0.96001955 -43.807733 
424010 0.95401653 -43.670618 
425010 0.94807307 -43.534438 
426010 0.94218837 -43.399182 
427010 0.93636161 -43.264841 
428010 0.93059202 -43.131404 
429010 0.9248788 -42.998863 
430010 0.91922121 -42.867207 
431010 0.91361848 -42.736428 
432010 0.9080699 -42.606516 
433010 0.90257473 -42.477462 
434010 0.89713226 -42.349258 
435010 0.89174179 -42.221894 
436010 0.88640264 -42.095363 
437010 0.88111413 -41.969654 
438010 0.8758756 -41.844761 
439010 0.87068639 -41.720674 
440010 0.86554586 -41.597386 
441010 0.86045338 -41.474889 
442010 0.85540834 -41.353173 
443010 0.85041011 -41.232233 
444010 0.84545811 -41.112059 
445010 0.84055173 -40.992645 
446010 0.83569039 -40.873982 
447010 0.83087354 -40.756064 
448010 0.82610059 -40.638882 
449010 0.82137101 -40.522431 
450010 0.81668425 -40.406701 
451010 0.81203976 -40.291688 
452010 0.80743703 -40.177383 
453010 0.80287553 -40.06378 
454010 0.79835475 -39.950872 
455010 0.7938742 -39.838652 
456010 0.78943338 -39.727114 
457010 0.78503179 -39.616251 
458010 0.78066897 -39.506057 
459010 0.77634444 -39.396525 
460010 0.77205774 -39.28765 
461010 0.76780841 -39.179424 
462010 0.76359599 -39.071843 
463010 0.75942006 -38.964899 
464010 0.75528016 -38.858588 
465010 0.75117587 -38.752903 
466010 0.74710678 -38.647838 
467010 0.74307245 -38.543388 
468010 0.73907249 -38.439547 
469010 0.73510648 -38.336309 
470010 0.73117403 -38.233669 
471010 0.72727475 -38.131622 
472010 0.72340825 -38.030161 
473010 0.71957415 -37.929283 
474010 0.71577208 -37.828981 
475010 0.71200166 -37.729251 
476010 0.70826254 -37.630087 
477010 0.70455435 -37.531484 
478010 0.70087674 -37.433438 
479010 0.69722937 -37.335943 
480010 0.69361188 -37.238994 
481010 0.69002395 -37.142587 
482010 0.68646524 -37.046717 
483010 0.68293542 -36.951379 
484010 0.67943417 -36.856569 
485010 0.67596116 -36.762282 
486010 0.67251609 -36.668514 
487010 0.66909864 -36.575259 
488010 0.66570852 -36.482515 
489010 0.66234541 -36.390275 
490010 0.65900902 -36.298536 
491010 0.65569906 -36.207294 
492010 0.65241523 -36.116545 
493010 0.64915726 -36.026284 
494010 0.64592487 -35.936507 
495010 0.64271777 -35.84721 
496010 0.6395357 -35.758389 
497010 0.63637838 -35.67004 
498010 0.63324555 -35.58216 
499010 0.63013695 -35.494744 
500010 0.62705232 -35.407788 
501010 0.6239914 -35.321289 
502010 0.62095394 -35.235242 
503010 0.61793971 -35.149645 
504010 0.61494844 -35.064494 
505010 0.6119799 -34.979784 
506010 0.60903385 -34.895512 
507010 0.60611006 -34.811675 
508010 0.60320829 -34.72827 
509010 0.60032833 -34.645292 
510010 0.59746993 -34.562738 
511010 0.59463288 -34.480606 
512010 0.59181696 -34.39889 
513010 0.58902195 -34.317589 
514010 0.58624764 -34.236699 
515010 0.58349381 -34.156217 
516010 0.58076027 -34.076139 
517010 0.57804679 -33.996462 
518010 0.57535319 -33.917184 
519010 0.57267926 -33.8383 
520010 0.5700248 -33.759808 
521010 0.56738961 -33.681706 
522010 0.56477351 -33.603989 
523010 0.5621763 -33.526655 
524010 0.5595978 -33.4497 
525010 0.55703782 -33.373123 
526010 0.55449618 -33.29692 
527010 0.55197269 -33.221088 
528010 0.54946718 -33.145625 
529010 0.54697947 -33.070527 
530010 0.54450939 -32.995792 
531010 0.54205677 -32.921417 
532010 0.53962143 -32.8474 
533010 0.53720321 -32.773737 
534010 0.53480194 -32.700426 
535010 0.53241746 -32.627465 
536010 0.53004961 -32.55485 
537010 0.52769823 -32.48258 
538010 0.52536315 -32.410651 
539010 0.52304424 -32.339061 
540010 0.52074132 -32.267809 
541010 0.51845425 -32.19689 
542010 0.51618288 -32.126303 
543010 0.51392707 -32.056045 
544010 0.51168666 -31.986114 
545010 0.50946151 -31.916508 
546010 0.50725147 -31.847223 
547010 0.50505641 -31.778259 
548010 0.50287619 -31.709612 
549010 0.50071067 -31.64128 
550010 0.49855971 -31.573262 
551010 0.49642317 -31.505554 
552010 0.49430094 -31.438154 
553010 0.49219286 -31.371061 
554010 0.49009882 -31.304272 
555010 0.48801868 -31.237785 
556010 0.48595233 -31.171598 
557010 0.48389962 -31.105708 
558010 0.48186044 -31.040114 
559010 0.47983467 -30.974814 
560010 0.47782219 -30.909805 
561010 0.47582287 -30.845086 
562010 0.47383659 -30.780654 
563010 0.47186325 -30.716508 
564010 0.46990272 -30.652645 
565010 0.46795489 -30.589063 
566010 0.46601965 -30.525762 
567010 0.46409689 -30.462738 
568010 0.46218649 -30.399989 
569010 0.46028834 -30.337515 
570010 0.45840235 -30.275313 
571010 0.45652839 -30.21338 
572010 0.45466637 -30.151717 
573010 0.45281618 -30.090319 
574010 0.45097772 -30.029187 
575010 0.44915089 -29.968317 
576010 0.44733558 -29.907709 
577010 0.44553169 -29.84736 
578010 0.44373913 -29.787268 
579010 0.4419578 -29.727433 
580010 0.44018761 -29.667852 
581010 0.43842845 -29.608524 
582010 0.43668023 -29.549446 
583010 0.43494286 -29.490618 
584010 0.43321625 -29.432037 
585010 0.4315003 -29.373703 
586010 0.42979493 -29.315613 
587010 0.42810005 -29.257765 
588010 0.42641556 -29.200159 
589010 0.42474138 -29.142792 
590010 0.42307742 -29.085664 
591010 0.4214236 -29.028772 
592010 0.41977984 -28.972115 
593010 0.41814604 -28.915692 
594010 0.41652213 -28.8595 
595010 0.41490802 -28.80354 
596010 0.41330364 -28.747808 
597010 0.4117089 -28.692304 
598010 0.41012372 -28.637026 
599010 0.40854802 -28.581972 
600010 0.40698173 -28.527142 
601010 0.40542477 -28.472534 
602010 0.40387707 -28.418146 
603010 0.40233854 -28.363977 
604010 0.40080912 -28.310026 
605010 0.39928872 -28.256292 
606010 0.39777729 -28.202772 
607010 0.39627473 -28.149466 
608010 0.39478099 -28.096372 
609010 0.39329599 -28.04349 
610010 0.39181967 -27.990817 
611010 0.39035194 -27.938352 
612010 0.38889275 -27.886094 
613010 0.38744203 -27.834043 
614010 0.3859997 -27.782196 
615010 0.3845657 -27.730552 
616010 0.38313998 -27.67911 
617010 0.38172245 -27.62787 
618010 0.38031305 -27.576828 
619010 0.37891173 -27.525986 
620010 0.37751842 -27.47534 
621010 0.37613306 -27.424891 
622010 0.37475557 -27.374636 
623010 0.37338591 -27.324575 
624010 0.37202402 -27.274707 
625010 0.37066982 -27.22503 
626010 0.36932327 -27.175543 
627010 0.3679843 -27.126245 
628010 0.36665285 -27.077135 
629010 0.36532887 -27.028213 
630010 0.3640123 -26.979475 
631010 0.36270308 -26.930923 
632010 0.36140116 -26.882554 
633010 0.36010647 -26.834367 
634010 0.35881898 -26.786362 
635010 0.35753861 -26.738538 
636010 0.35626532 -26.690892 
637010 0.35499906 -26.643425 
638010 0.35373976 -26.596135 
639010 0.35248738 -26.549021 
640010 0.35124187 -26.502082 
641010 0.35000318 -26.455318 
642010 0.34877124 -26.408727 
643010 0.34754602 -26.362307 
644010 0.34632746 -26.316059 
645010 0.34511552 -26.269982 
646010 0.34391014 -26.224073 
647010 0.34271127 -26.178333 
648010 0.34151887 -26.132759 
649010 0.3403329 -26.087353 
650010 0.33915329 -26.042111 
651010 0.33798001 -25.997034 
652010 0.33681301 -25.952121 
653010 0.33565224 -25.90737 
654010 0.33449766 -25.862781 
655010 0.33334922 -25.818352 
656010 0.33220688 -25.774084 
657010 0.3310706 -25.729974 
658010 0.32994032 -25.686023 
659010 0.32881601 -25.642229 
660010 0.32769762 -25.598591 
661010 0.32658512 -25.555109 
662010 0.32547845 -25.511781 
663010 0.32437758 -25.468607 
664010 0.32328246 -25.425586 
665010 0.32219306 -25.382717 
666010 0.32110933 -25.339999 
667010 0.32003124 -25.297432 
668010 0.31895873 -25.255014 
669010 0.31789178 -25.212745 
670010 0.31683035 -25.170624 
671010 0.31577439 -25.12865 
672010 0.31472386 -25.086823 
673010 0.31367874 -25.045141 
674010 0.31263897 -25.003604 
675010 0.31160453 -24.962211 
676010 0.31057537 -24.920961 
677010 0.30955146 -24.879853 
678010 0.30853276 -24.838888 
679010 0.30751924 -24.798063 
680010 0.30651086 -24.757378 
681010 0.30550758 -24.716833 
682010 0.30450938 -24.676427 
683010 0.3035162 -24.636158 
684010 0.30252803 -24.596027 
685010 0.30154482 -24.556032 
